;$FILEVERSION=1.3
;$STARTTIME=45504.5304838442244
;
;   Start time: 31/07/2024 12:43:53.804.1
;   Generated by PCAN-Explorer v6.5.2.2576
;-------------------------------------------------------------------------------
;   Bus  Connection   Net Connection      Protocol  Bit rate
;   1    Connection1  Untitled1@pcan_usb  CAN       500 kbit/s
;-------------------------------------------------------------------------------
;   Message   Time    Bus  Type   ID    Reserved
;   Number    Offset  |    |      [hex] |   Data Length Code
;   |         [ms]    |    |      |     |   |    Data [hex] ...
;   |         |       |    |      |     |   |    |
;---+-- ------+------ +- --+-- ---+---- +- -+-- -+ -- -- -- -- -- -- --
     1)         1.766 1  Rx        01AC -  8    E0 1F F0 03 42 E2 D1 02
     2)         6.758 1  Rx        018D -  8    00 00 7D B3 00 00 3B 01
     3)         7.227 1  Rx        01A0 -  8    C3 01 71 F2 3F 00 00 00
     4)         7.441 1  Rx        01AC -  8    AB 51 FF F3 BF FF FD 02
     5)         7.739 1  Rx    1A555510 -  8    82 30 35 32 37 CC 00 00
     6)        11.750 1  Rx        00A8 -  8    00 E0 FF D6 99 64 6E 0E
     7)        16.784 1  Rx        00EE -  8    00 00 00 00 00 00 40 8F
     8)        21.776 1  Rx        0152 -  8    EF D9 CE 7C 3D D7 7E 9D
     9)        26.767 1  Rx        0151 -  8    92 16 FF 7F FC 03 00 7D
    10)        27.151 1  Rx        01A0 -  8    B2 02 71 F2 3F 00 00 00
    11)        27.407 1  Rx        01AC -  8    51 52 FF F3 BF FF FD 02
    12)        31.759 1  Rx        018D -  8    00 10 7D B3 00 00 3B 01
    13)        36.751 1  Rx        03A3 -  8    17 9D 2F 42 42 3F FE CB
    14)        41.785 1  Rx        00A8 -  8    00 E0 FF D6 99 64 66 0E
    15)        46.777 1  Rx        00EE -  8    00 00 00 00 00 00 40 8F
    16)        47.161 1  Rx        01A0 -  8    C2 03 71 F2 3F 00 00 00
    17)        47.417 1  Rx        01AC -  8    9B 53 FF F3 BF FF FD 02
    18)        51.769 1  Rx        0152 -  8    A7 DA CE 7C 3D D4 7E 9D
    19)        56.590 1  Rx        03C0 -  4    9F 0D 23 00
    20)        61.752 1  Rx        00FD -  8    05 E4 3F 00 00 00 00 00
    21)        66.744 1  Rx        0504 -  8    FF 06 00 00 26 11 14 11
    22)        67.170 1  Rx        01A0 -  8    CE 04 71 F2 3F 00 00 00
    23)        67.426 1  Rx        01AC -  8    DE 54 FF F3 BF FF FD 02
    24)        67.640 1  Rx        02C0 -  8    8A 09 39 43 80 1C 0C 70
    25)        71.778 1  Rx        0040 -  8    61 09 00 01 81 00 00 B6
    26)        76.770 1  Rx        0151 -  8    3A 18 FF 7F FC 03 00 7D
    27)        81.761 1  Rx        0040 -  8    F8 08 00 01 81 00 00 B4
    28)        86.753 1  Rx        00A8 -  8    00 E0 FF D6 99 64 78 0E
    29)        87.180 1  Rx        01A0 -  8    FB 05 71 F2 3F 00 00 00
    30)        87.393 1  Rx        01AC -  8    7F 55 FF F3 BF FF FD 02
    31)        91.745 1  Rx        0151 -  8    17 15 FF FF FC 03 00 7D
    32)        96.779 1  Rx        01A0 -  8    FF 9F 0F C3 3F 00 00 00
    33)       101.771 1  Rx        01AC -  8    E0 1F F0 03 42 E2 D1 02
    34)       106.762 1  Rx        018D -  8    00 00 7D B3 00 00 3B 01
    35)       107.146 1  Rx        01A0 -  8    D9 06 71 F2 3F 00 00 00
    36)       107.402 1  Rx        01AC -  8    A8 56 FF F3 BF FF FD 02
    37)       111.754 1  Rx        00A8 -  8    00 E0 FF D6 99 64 6E 0E
    38)       116.789 1  Rx        00EE -  8    00 00 00 00 00 00 40 8F
    39)       121.738 1  Rx        0152 -  8    EF D9 CE 7C 3D D7 7E 9D
    40)       126.772 1  Rx        0151 -  8    92 16 FF 7F FC 03 00 7D
    41)       127.199 1  Rx        01A0 -  8    31 07 71 F2 3F 00 00 00
    42)       127.455 1  Rx        01AC -  8    37 57 FF F3 BF FF FD 02
    43)       131.764 1  Rx        018D -  8    00 10 7D B3 00 00 3B 01
    44)       136.755 1  Rx        03A3 -  8    17 9D 2F 42 42 3F FE CB
    45)       141.747 1  Rx        00A8 -  8    00 E0 FF D6 99 64 66 0E
    46)       146.781 1  Rx        00EE -  8    00 00 00 00 00 00 40 8F
    47)       147.165 1  Rx        01A0 -  8    A0 08 71 F2 3F 00 00 00
    48)       147.379 1  Rx        01AC -  8    D8 58 FF F3 BF FF FD 02
    49)       147.635 1  Rx        02C0 -  8    3E 0A 39 43 80 1C 0C 70
    50)       151.730 1  Rx        0152 -  8    A7 DA CE 7C 3D D4 7E 9D
    51)       156.594 1  Rx        03C0 -  4    9F 0D 23 00
    52)       157.234 1  Rx    1B000085 -  8    85 40 04 03 00 00 00 00
    53)       161.756 1  Rx        00FD -  8    05 E4 3F 00 00 00 00 00
    54)       166.748 1  Rx        0504 -  8    FF 06 00 00 26 11 14 11
    55)       167.175 1  Rx        01A0 -  8    36 09 71 F2 3F 00 00 00
    56)       167.388 1  Rx        01AC -  8    19 59 FF F3 BF FF FD 02
    57)       171.740 1  Rx        0040 -  8    61 09 00 01 81 00 00 B6
    58)       176.774 1  Rx        0151 -  8    3A 18 FF 7F FC 03 00 7D
    59)       181.766 1  Rx        0040 -  8    F8 08 00 01 81 00 00 B4
    60)       186.757 1  Rx        00A8 -  8    00 E0 FF D6 99 64 78 0E
    61)       187.184 1  Rx        01A0 -  8    14 0A 71 F2 3F 00 00 00
    62)       187.440 1  Rx        01AC -  8    35 5A FF F3 BF FF FD 02
    63)       191.749 1  Rx        0151 -  8    17 15 FF FF FC 03 00 7D
    64)       195.504 1  Rx        0700 -  8    02 3E 80 FF FF FF FF FF
    65)       196.741 1  Rx        01A0 -  8    FF 9F 0F C3 3F 00 00 00
    66)       201.733 1  Rx        01AC -  8    E0 1F F0 03 42 E2 D1 02
    67)       206.767 1  Rx        018D -  8    00 00 7D B3 00 00 3B 01
    68)       207.151 1  Rx        01A0 -  8    71 0B 71 F2 3F 00 00 00
    69)       207.364 1  Rx        01AC -  8    9D 5B FF F3 BF FF FD 02
    70)       211.759 1  Rx        00A8 -  8    00 E0 FF D6 99 64 6E 0E
    71)       216.750 1  Rx        00EE -  8    00 00 00 00 00 00 40 8F
    72)       221.742 1  Rx        0152 -  8    EF D9 CE 7C 3D D7 7E 9D
    73)       226.734 1  Rx        0151 -  8    92 16 FF 7F FC 03 00 7D
    74)       227.160 1  Rx        01A0 -  8    AB 0C 71 F2 3F 00 00 00
    75)       227.374 1  Rx        01AC -  8    DB 5C FF F3 BF FF FD 02
    76)       227.630 1  Rx        02C0 -  8    7B 0B 39 43 80 1C 0C 70
    77)       231.768 1  Rx        018D -  8    00 10 7D B3 00 00 3B 01
    78)       236.760 1  Rx        03A3 -  8    17 9D 2F 42 42 3F FE CB
    79)       241.751 1  Rx        00A8 -  8    00 E0 FF D6 99 64 66 0E
    80)       246.743 1  Rx        00EE -  8    00 00 00 00 00 00 40 8F
    81)       247.127 1  Rx        01A0 -  8    E9 0D 71 F2 3F 00 00 00
    82)       247.383 1  Rx        01AC -  8    E3 5D FF F3 BF FF FD 02
    83)       251.735 1  Rx        0152 -  8    A7 DA CE 7C 3D D4 7E 9D
    84)       256.598 1  Rx        03C0 -  4    9F 0D 23 00
    85)       261.761 1  Rx        00FD -  8    05 E4 3F 00 00 00 00 00
    86)       266.752 1  Rx        0504 -  8    FF 06 00 00 26 11 14 11
    87)       267.136 1  Rx        01A0 -  8    90 0E 71 F2 3F 00 00 00
    88)       267.392 1  Rx        01AC -  8    84 5E FF F3 BF FF FD 02
    89)       267.648 1  Rx    17F00085 -  8    20 85 00 00 00 00 01 80
    90)       267.947 1  Rx    1A5554A7 -  8    42 00 00 00 00 00 00 80
    91)       273.152 1  Rx        0040 -  8    61 09 00 01 81 00 00 B6
    92)       276.736 1  Rx        0151 -  8    3A 18 FF 7F FC 03 00 7D
    93)       281.770 1  Rx        0040 -  8    F8 08 00 01 81 00 00 B4
    94)       286.762 1  Rx        00A8 -  8    00 E0 FF D6 99 64 78 0E
    95)       287.189 1  Rx        01A0 -  8    83 0F 71 F2 3F 00 00 00
    96)       287.445 1  Rx        01AC -  8    C6 5F FF F3 BF FF FD 02
    97)       291.754 1  Rx        0151 -  8    17 15 FF FF FC 03 00 7D
    98)       296.745 1  Rx        01A0 -  8    FF 9F 0F C3 3F 00 00 00
    99)       301.737 1  Rx        01AC -  8    E0 1F F0 03 42 E2 D1 02
   100)       306.729 1  Rx        018D -  8    00 00 7D B3 00 00 3B 01
   101)       307.198 1  Rx        01A0 -  8    74 00 71 F2 3F 00 00 00
   102)       307.411 1  Rx        01AC -  8    65 50 FF F3 BF FF FD 02
   103)       307.667 1  Rx        02C0 -  8    23 0C 39 43 80 1C 0C 70
   104)       311.720 1  Rx        00A8 -  8    00 E0 FF D6 99 64 6E 0E
   105)       316.755 1  Rx        00EE -  8    00 00 00 00 00 00 40 8F
   106)       321.746 1  Rx        0152 -  8    EF D9 CE 7C 3D D7 7E 9D
   107)       326.738 1  Rx        0151 -  8    92 16 FF 7F FC 03 00 7D
   108)       327.122 1  Rx        01A0 -  8    C3 01 71 F2 3F 00 00 00
   109)       327.378 1  Rx        01AC -  8    AB 51 FF F3 BF FF FD 02
   110)       331.730 1  Rx        018D -  8    00 10 7D B3 00 00 3B 01
   111)       336.721 1  Rx        03A3 -  8    17 9D 2F 42 42 3F FE CB
   112)       341.756 1  Rx        00A8 -  8    00 E0 FF D6 99 64 66 0E
   113)       346.747 1  Rx        00EE -  8    00 00 00 00 00 00 40 8F
   114)       347.131 1  Rx        01A0 -  8    B2 02 71 F2 3F 00 00 00
   115)       347.387 1  Rx        01AC -  8    51 52 FF F3 BF FF FD 02
   116)       351.739 1  Rx        0152 -  8    A7 DA CE 7C 3D D4 7E 9D
   117)       356.560 1  Rx        03C0 -  4    9F 0D 23 00
   118)       357.200 1  Rx    1B000085 -  8    85 40 04 03 00 00 00 00
   119)       361.765 1  Rx        00FD -  8    05 E4 3F 00 00 00 00 00
   120)       366.757 1  Rx        0504 -  8    FF 06 00 00 26 11 14 11
   121)       367.141 1  Rx        01A0 -  8    C2 03 71 F2 3F 00 00 00
   122)       367.354 1  Rx        01AC -  8    9B 53 FF F3 BF FF FD 02
   123)       371.749 1  Rx        0040 -  8    61 09 00 01 81 00 00 B6
   124)       376.740 1  Rx        0151 -  8    3A 18 FF 7F FC 03 00 7D
   125)       381.732 1  Rx        0040 -  8    F8 08 00 01 81 00 00 B4
   126)       386.724 1  Rx        00A8 -  8    00 E0 FF D6 99 64 78 0E
   127)       387.150 1  Rx        01A0 -  8    CE 04 71 F2 3F 00 00 00
   128)       387.364 1  Rx        01AC -  8    DE 54 FF F3 BF FF FD 02
   129)       387.620 1  Rx        02C0 -  8    4B 0D 39 43 80 1C 0C 70
   130)       391.758 1  Rx        0151 -  8    17 15 FF FF FC 03 00 7D
   131)       396.750 1  Rx        01A0 -  8    FF 9F 0F C3 3F 00 00 00
   132)       401.741 1  Rx        01AC -  8    E0 1F F0 03 42 E2 D1 02
   133)       406.733 1  Rx        018D -  8    00 00 7D B3 00 00 3B 01
   134)       407.117 1  Rx        01A0 -  8    FB 05 71 F2 3F 00 00 00
   135)       407.373 1  Rx        01AC -  8    7F 55 FF F3 BF FF FD 02
   136)       411.725 1  Rx        00A8 -  8    00 E0 FF D6 99 64 6E 0E
   137)       416.759 1  Rx        00EE -  8    00 00 00 00 00 00 40 8F
   138)       421.708 1  Rx        0152 -  8    EF D9 CE 7C 3D D7 7E 9D
   139)       426.742 1  Rx        0151 -  8    92 16 FF 7F FC 03 00 7D
   140)       427.169 1  Rx        01A0 -  8    D9 06 71 F2 3F 00 00 00
   141)       427.425 1  Rx        01AC -  8    A8 56 FF F3 BF FF FD 02
   142)       431.734 1  Rx        018D -  8    00 10 7D B3 00 00 3B 01
   143)       436.726 1  Rx        03A3 -  8    17 9D 2F 42 42 3F FE CB
   144)       441.718 1  Rx        00A8 -  8    00 E0 FF D6 99 64 66 0E
   145)       446.752 1  Rx        00EE -  8    00 00 00 00 00 00 40 8F
   146)       447.136 1  Rx        01A0 -  8    31 07 71 F2 3F 00 00 00
   147)       447.349 1  Rx        01AC -  8    37 57 FF F3 BF FF FD 02
   148)       451.744 1  Rx        0152 -  8    A7 DA CE 7C 3D D4 7E 9D
   149)       456.565 1  Rx        03C0 -  4    9F 0D 23 00
   150)       461.727 1  Rx        00FD -  8    05 E4 3F 00 00 00 00 00
   151)       466.719 1  Rx        0504 -  8    FF 06 00 00 26 11 14 11
   152)       467.103 1  Rx        01A0 -  8    A0 08 71 F2 3F 00 00 00
   153)       467.359 1  Rx        01AC -  8    D8 58 FF F3 BF FF FD 02
   154)       467.572 1  Rx        02C0 -  8    D5 0E 39 43 80 1C 0C 70
   155)       471.753 1  Rx        0040 -  8    61 09 00 01 81 00 00 B6
   156)       476.745 1  Rx        0151 -  8    3A 18 FF 7F FC 03 00 7D
   157)       481.736 1  Rx        0040 -  8    F8 08 00 01 81 00 00 B4
   158)       486.728 1  Rx        00A8 -  8    00 E0 FF D6 99 64 78 0E
   159)       487.155 1  Rx        01A0 -  8    36 09 71 F2 3F 00 00 00
   160)       487.411 1  Rx        01AC -  8    19 59 FF F3 BF FF FD 02
   161)       491.720 1  Rx        0151 -  8    17 15 FF FF FC 03 00 7D
   162)       496.711 1  Rx        01A0 -  8    FF 9F 0F C3 3F 00 00 00
   163)       501.703 1  Rx        01AC -  8    E0 1F F0 03 42 E2 D1 02
   164)       506.737 1  Rx        018D -  8    00 00 7D B3 00 00 3B 01
   165)       507.121 1  Rx        01A0 -  8    14 0A 71 F2 3F 00 00 00
   166)       507.377 1  Rx        01AC -  8    35 5A FF F3 BF FF FD 02
   167)       511.729 1  Rx        00A8 -  8    00 E0 FF D6 99 64 6E 0E
   168)       516.721 1  Rx        00EE -  8    00 00 00 00 00 00 40 8F
   169)       521.713 1  Rx        0152 -  8    EF D9 CE 7C 3D D7 7E 9D
   170)       526.704 1  Rx        0151 -  8    92 16 FF 7F FC 03 00 7D
   171)       527.088 1  Rx        01A0 -  8    71 0B 71 F2 3F 00 00 00
   172)       527.344 1  Rx        01AC -  8    9D 5B FF F3 BF FF FD 02
   173)       531.739 1  Rx        018D -  8    00 10 7D B3 00 00 3B 01
   174)       536.730 1  Rx        03A3 -  8    17 9D 2F 42 42 3F FE CB
   175)       541.722 1  Rx        00A8 -  8    00 E0 FF D6 99 64 66 0E
   176)       546.714 1  Rx        00EE -  8    00 00 00 00 00 00 40 8F
   177)       547.140 1  Rx        01A0 -  8    AB 0C 71 F2 3F 00 00 00
   178)       547.396 1  Rx        01AC -  8    DB 5C FF F3 BF FF FD 02
   179)       547.610 1  Rx        02C0 -  8    F9 0F 39 43 80 1C 0C 70
   180)       551.705 1  Rx        0152 -  8    A7 DA CE 7C 3D D4 7E 9D
   181)       556.569 1  Rx        03C0 -  4    9F 0D 23 00
   182)       557.166 1  Rx    1B000085 -  8    85 40 04 03 00 00 00 00
   183)       561.731 1  Rx        00FD -  8    05 E4 3F 00 00 00 00 00
   184)       566.723 1  Rx        0504 -  8    FF 06 00 00 26 11 14 11
   185)       567.107 1  Rx        01A0 -  8    E9 0D 71 F2 3F 00 00 00
   186)       567.363 1  Rx        01AC -  8    E3 5D FF F3 BF FF FD 02
   187)       571.715 1  Rx        0040 -  8    61 09 00 01 81 00 00 B6
   188)       578.114 1  Rx        0151 -  8    3A 18 FF 7F FC 03 00 7D
   189)       581.741 1  Rx        0040 -  8    F8 08 00 01 81 00 00 B4
   190)       586.732 1  Rx        00A8 -  8    00 E0 FF D6 99 64 78 0E
   191)       587.116 1  Rx        01A0 -  8    90 0E 71 F2 3F 00 00 00
   192)       587.372 1  Rx        01AC -  8    84 5E FF F3 BF FF FD 02
   193)       591.724 1  Rx        0151 -  8    17 15 FF FF FC 03 00 7D
   194)       596.716 1  Rx        01A0 -  8    FF 9F 0F C3 3F 00 00 00
   195)       601.708 1  Rx        01AC -  8    E0 1F F0 03 42 E2 D1 02
   196)       606.699 1  Rx        018D -  8    00 00 7D B3 00 00 3B 01
   197)       607.169 1  Rx        01A0 -  8    83 0F 71 F2 3F 00 00 00
   198)       607.382 1  Rx        01AC -  8    C6 5F FF F3 BF FF FD 02
   199)       611.734 1  Rx        00A8 -  8    00 E0 FF D6 99 64 6E 0E
   200)       616.725 1  Rx        00EE -  8    00 00 00 00 00 00 40 8F
   201)       621.717 1  Rx        0152 -  8    EF D9 CE 7C 3D D7 7E 9D
   202)       626.709 1  Rx        0151 -  8    92 16 FF 7F FC 03 00 7D
   203)       627.093 1  Rx        01A0 -  8    74 00 71 F2 3F 00 00 00
   204)       627.349 1  Rx        01AC -  8    65 50 FF F3 BF FF FD 02
   205)       627.605 1  Rx        02C0 -  8    61 00 39 43 80 1C 0C 70
   206)       631.700 1  Rx        018D -  8    00 10 7D B3 00 00 3B 01
   207)       636.722 1  Rx        03A3 -  8    17 9D 2F 42 42 3F FE CB
   208)       641.756 1  Rx        00A8 -  8    00 E0 FF D6 99 64 66 0E
   209)       646.748 1  Rx        00EE -  8    00 00 00 00 00 00 40 8F
   210)       647.132 1  Rx        01A0 -  8    C3 01 71 F2 3F 00 00 00
   211)       647.388 1  Rx        01AC -  8    AB 51 FF F3 BF FF FD 02
   212)       651.740 1  Rx        0152 -  8    A7 DA CE 7C 3D D4 7E 9D
   213)       656.689 1  Rx        03C0 -  4    9F 0D 23 00
   214)       661.766 1  Rx        00FD -  8    05 E4 3F 00 00 00 00 00
   215)       666.757 1  Rx        0504 -  8    FF 06 00 00 26 11 14 11
   216)       667.184 1  Rx        01A0 -  8    B2 02 71 F2 3F 00 00 00
   217)       667.397 1  Rx        01AC -  8    51 52 FF F3 BF FF FD 02
   218)       671.749 1  Rx        0040 -  8    61 09 00 01 81 00 00 B6
   219)       676.741 1  Rx        0151 -  8    3A 18 FF 7F FC 03 00 7D
   220)       681.733 1  Rx        0040 -  8    F8 08 00 01 81 00 00 B4
   221)       686.724 1  Rx        00A8 -  8    00 E0 FF D6 99 64 78 0E
   222)       687.108 1  Rx        01A0 -  8    C2 03 71 F2 3F 00 00 00
   223)       687.364 1  Rx        01AC -  8    9B 53 FF F3 BF FF FD 02
   224)       691.759 1  Rx        0151 -  8    17 15 FF FF FC 03 00 7D
   225)       696.750 1  Rx        01A0 -  8    FF 9F 0F C3 3F 00 00 00
   226)       701.742 1  Rx        01AC -  8    E0 1F F0 03 42 E2 D1 02
   227)       706.734 1  Rx        018D -  8    00 00 7D B3 00 00 3B 01
   228)       707.118 1  Rx        01A0 -  8    CE 04 71 F2 3F 00 00 00
   229)       707.374 1  Rx        01AC -  8    DE 54 FF F3 BF FF FD 02
   230)       707.587 1  Rx        02C0 -  8    B9 01 39 43 80 1C 0C 70
   231)       711.725 1  Rx        00A8 -  8    00 E0 FF D6 99 64 6E 0E
   232)       716.760 1  Rx        00EE -  8    00 00 00 00 00 00 40 8F
   233)       721.751 1  Rx        0152 -  8    EF D9 CE 7C 3D D7 7E 9D
   234)       726.743 1  Rx        0151 -  8    92 16 FF 7F FC 03 00 7D
   235)       727.170 1  Rx        01A0 -  8    FB 05 71 F2 3F 00 00 00
   236)       727.426 1  Rx        01AC -  8    7F 55 FF F3 BF FF FD 02
   237)       731.735 1  Rx        018D -  8    00 10 7D B3 00 00 3B 01
   238)       736.726 1  Rx        03A3 -  8    17 9D 2F 42 42 3F FE CB
   239)       741.718 1  Rx        00A8 -  8    00 E0 FF D6 99 64 66 0E
   240)       746.752 1  Rx        00EE -  8    00 00 00 00 00 00 40 8F
   241)       747.136 1  Rx        01A0 -  8    D9 06 71 F2 3F 00 00 00
   242)       747.350 1  Rx        01AC -  8    A8 56 FF F3 BF FF FD 02
   243)       751.744 1  Rx        0152 -  8    A7 DA CE 7C 3D D4 7E 9D
   244)       756.651 1  Rx        03C0 -  4    9F 0D 23 00
   245)       757.205 1  Rx    1B000085 -  8    85 40 04 03 00 00 00 00
   246)       761.728 1  Rx        00FD -  8    05 E4 3F 00 00 00 00 00
   247)       766.719 1  Rx        0504 -  8    FF 06 00 00 26 11 14 11
   248)       767.103 1  Rx        01A0 -  8    31 07 71 F2 3F 00 00 00
   249)       767.359 1  Rx        01AC -  8    37 57 FF F3 BF FF FD 02
   250)       767.658 1  Rx    17F00085 -  8    20 85 00 00 00 00 01 80
   251)       767.914 1  Rx    1A5554A7 -  8    42 00 00 00 00 00 00 80
   252)       771.754 1  Rx        0040 -  8    61 09 00 01 81 00 00 B6
   253)       776.745 1  Rx        0151 -  8    3A 18 FF 7F FC 03 00 7D
   254)       781.737 1  Rx        0040 -  8    F8 08 00 01 81 00 00 B4
   255)       786.729 1  Rx        00A8 -  8    00 E0 FF D6 99 64 78 0E
   256)       787.155 1  Rx        01A0 -  8    A0 08 71 F2 3F 00 00 00
   257)       787.411 1  Rx        01AC -  8    D8 58 FF F3 BF FF FD 02
   258)       787.625 1  Rx        02C0 -  8    46 02 39 43 80 1C 0C 70
   259)       791.720 1  Rx        0151 -  8    17 15 FF FF FC 03 00 7D
   260)       796.755 1  Rx        01A0 -  8    FF 9F 0F C3 3F 00 00 00
   261)       798.547 1  Rx        0700 -  8    02 3E 80 FF FF FF FF FF
   262)       801.746 1  Rx        01AC -  8    E0 1F F0 03 42 E2 D1 02
   263)       806.738 1  Rx        018D -  8    00 00 7D B3 00 00 3B 01
   264)       807.122 1  Rx        01A0 -  8    36 09 71 F2 3F 00 00 00
   265)       807.378 1  Rx        01AC -  8    19 59 FF F3 BF FF FD 02
   266)       811.730 1  Rx        00A8 -  8    00 E0 FF D6 99 64 6E 0E
   267)       816.721 1  Rx        00EE -  8    00 00 00 00 00 00 40 8F
   268)       821.713 1  Rx        0152 -  8    EF D9 CE 7C 3D D7 7E 9D
   269)       826.705 1  Rx        0151 -  8    92 16 FF 7F FC 03 00 7D
   270)       827.131 1  Rx        01A0 -  8    14 0A 71 F2 3F 00 00 00
   271)       827.345 1  Rx        01AC -  8    35 5A FF F3 BF FF FD 02
   272)       831.739 1  Rx        018D -  8    00 10 7D B3 00 00 3B 01
   273)       836.731 1  Rx        03A3 -  8    17 9D 2F 42 42 3F FE CB
   274)       841.723 1  Rx        00A8 -  8    00 E0 FF D6 99 64 66 0E
   275)       846.714 1  Rx        00EE -  8    00 00 00 00 00 00 40 8F
   276)       847.141 1  Rx        01A0 -  8    71 0B 71 F2 3F 00 00 00
   277)       847.397 1  Rx        01AC -  8    9D 5B FF F3 BF FF FD 02
   278)       851.706 1  Rx        0152 -  8    A7 DA CE 7C 3D D4 7E 9D
   279)       856.655 1  Rx        03C0 -  4    9F 0D 23 00
   280)       861.732 1  Rx        00FD -  8    05 E4 3F 00 00 00 00 00
   281)       866.724 1  Rx        0504 -  8    FF 06 00 00 26 11 14 11
   282)       867.108 1  Rx        01A0 -  8    AB 0C 71 F2 3F 00 00 00
   283)       867.364 1  Rx        01AC -  8    DB 5C FF F3 BF FF FD 02
   284)       867.577 1  Rx        02C0 -  8    FE 03 39 43 80 1C 0C 70
   285)       871.715 1  Rx        0040 -  8    61 09 00 01 81 00 00 B6
   286)       876.707 1  Rx        0151 -  8    3A 18 FF 7F FC 03 00 7D
   287)       881.741 1  Rx        0040 -  8    F8 08 00 01 81 00 00 B4
   288)       887.032 1  Rx        01A0 -  8    E9 0D 71 F2 3F 00 00 00
   289)       887.288 1  Rx        01AC -  8    E3 5D FF F3 BF FF FD 02
   290)       888.141 1  Rx        00A8 -  8    00 E0 FF D6 99 64 78 0E
   291)       891.725 1  Rx        0151 -  8    17 15 FF FF FC 03 00 7D
   292)       896.716 1  Rx        01A0 -  8    FF 9F 0F C3 3F 00 00 00
   293)       901.708 1  Rx        01AC -  8    E0 1F F0 03 42 E2 D1 02
   294)       906.742 1  Rx        018D -  8    00 00 7D B3 00 00 3B 01
   295)       907.169 1  Rx        01A0 -  8    90 0E 71 F2 3F 00 00 00
   296)       907.382 1  Rx        01AC -  8    84 5E FF F3 BF FF FD 02
   297)       911.734 1  Rx        00A8 -  8    00 E0 FF D6 99 64 6E 0E
   298)       916.726 1  Rx        00EE -  8    00 00 00 00 00 00 40 8F
   299)       921.718 1  Rx        0152 -  8    EF D9 CE 7C 3D D7 7E 9D
   300)       926.709 1  Rx        0151 -  8    92 16 FF 7F FC 03 00 7D
   301)       927.093 1  Rx        01A0 -  8    83 0F 71 F2 3F 00 00 00
   302)       927.349 1  Rx        01AC -  8    C6 5F FF F3 BF FF FD 02
   303)       931.701 1  Rx        018D -  8    00 10 7D B3 00 00 3B 01
   304)       936.693 1  Rx        03A3 -  8    17 9D 2F 42 42 3F FE CB
   305)       941.727 1  Rx        00A8 -  8    00 E0 FF D6 99 64 66 0E
   306)       946.719 1  Rx        00EE -  8    00 00 00 00 00 00 40 8F
   307)       947.060 1  Rx        01A0 -  8    74 00 71 F2 3F 00 00 00
   308)       947.316 1  Rx        01AC -  8    65 50 FF F3 BF FF FD 02
   309)       947.529 1  Rx        02C0 -  8    67 04 39 43 80 1C 0C 70
   310)       951.710 1  Rx        0152 -  8    A7 DA CE 7C 3D D4 7E 9D
   311)       956.659 1  Rx        03C0 -  4    9F 0D 23 00
   312)       957.171 1  Rx    1B000085 -  8    85 40 04 03 00 00 00 00
   313)       961.736 1  Rx        00FD -  8    05 E4 3F 00 00 00 00 00
   314)       966.728 1  Rx        0504 -  8    FF 06 00 00 26 11 14 11
   315)       967.155 1  Rx        01A0 -  8    C3 01 71 F2 3F 00 00 00
   316)       967.368 1  Rx        01AC -  8    AB 51 FF F3 BF FF FD 02
   317)       967.667 1  Rx    1A555510 -  8    83 30 30 30 30 4F 00 00
   318)       971.720 1  Rx        0040 -  8    61 09 00 01 81 00 00 B6
   319)       976.711 1  Rx        0151 -  8    3A 18 FF 7F FC 03 00 7D
   320)       981.703 1  Rx        0040 -  8    F8 08 00 01 81 00 00 B4
   321)       986.695 1  Rx        00A8 -  8    00 E0 FF D6 99 64 78 0E
   322)       987.121 1  Rx        01A0 -  8    B2 02 71 F2 3F 00 00 00
   323)       987.335 1  Rx        01AC -  8    51 52 FF F3 BF FF FD 02
   324)       991.729 1  Rx        0151 -  8    17 15 FF FF FC 03 00 7D
   325)       996.721 1  Rx        01A0 -  8    FF 9F 0F C3 3F 00 00 00
   326)      1001.713 1  Rx        01AC -  8    E0 1F F0 03 42 E2 D1 02
   327)      1006.704 1  Rx        018D -  8    00 00 7D B3 00 00 3B 01
   328)      1007.088 1  Rx        01A0 -  8    C2 03 71 F2 3F 00 00 00
   329)      1007.344 1  Rx        01AC -  8    9B 53 FF F3 BF FF FD 02
   330)      1011.696 1  Rx        00A8 -  8    00 E0 FF D6 99 64 6E 0E
   331)      1016.730 1  Rx        00EE -  8    00 00 00 00 00 00 40 8F
   332)      1021.722 1  Rx        0152 -  8    EF D9 CE 7C 3D D7 7E 9D
   333)      1026.714 1  Rx        0151 -  8    92 16 FF 7F FC 03 00 7D
   334)      1027.140 1  Rx        01A0 -  8    CE 04 71 F2 3F 00 00 00
   335)      1027.396 1  Rx        01AC -  8    DE 54 FF F3 BF FF FD 02
   336)      1027.610 1  Rx        02C0 -  8    73 05 39 43 80 1C 0C 70
   337)      1031.705 1  Rx        018D -  8    00 10 7D B3 00 00 3B 01
   338)      1036.697 1  Rx        03A3 -  8    17 9D 2F 42 42 3F FE CB
   339)      1041.689 1  Rx        00A8 -  8    00 E0 FF D6 99 64 66 0E
   340)      1046.723 1  Rx        00EE -  8    00 00 00 00 00 00 40 8F
   341)      1047.107 1  Rx        01A0 -  8    FB 05 71 F2 3F 00 00 00
   342)      1047.320 1  Rx        01AC -  8    7F 55 FF F3 BF FF FD 02
   343)      1051.715 1  Rx        0152 -  8    A7 DA CE 7C 3D D4 7E 9D
   344)      1056.621 1  Rx        03C0 -  4    9F 0D 23 00
   345)      1061.698 1  Rx        00FD -  8    05 E4 3F 00 00 00 00 00
   346)      1066.690 1  Rx        0504 -  8    FF 06 00 00 26 11 14 11
   347)      1067.074 1  Rx        01A0 -  8    D9 06 71 F2 3F 00 00 00
   348)      1067.330 1  Rx        01AC -  8    A8 56 FF F3 BF FF FD 02
   349)      1071.724 1  Rx        0040 -  8    61 09 00 01 81 00 00 B6
   350)      1076.716 1  Rx        0151 -  8    3A 18 FF 7F FC 03 00 7D
   351)      1081.708 1  Rx        0040 -  8    F8 08 00 01 81 00 00 B4
   352)      1086.699 1  Rx        00A8 -  8    00 E0 FF D6 99 64 78 0E
   353)      1087.126 1  Rx        01A0 -  8    31 07 71 F2 3F 00 00 00
   354)      1087.382 1  Rx        01AC -  8    37 57 FF F3 BF FF FD 02
   355)      1091.691 1  Rx        0151 -  8    17 15 FF FF FC 03 00 7D
   356)      1096.725 1  Rx        01A0 -  8    FF 9F 0F C3 3F 00 00 00
   357)      1101.717 1  Rx        01AC -  8    E0 1F F0 03 42 E2 D1 02
   358)      1106.709 1  Rx        018D -  8    00 00 7D B3 00 00 3B 01
   359)      1107.093 1  Rx        01A0 -  8    A0 08 71 F2 3F 00 00 00
   360)      1107.349 1  Rx        01AC -  8    D8 58 FF F3 BF FF FD 02
   361)      1107.562 1  Rx        02C0 -  8    8E 06 39 43 80 1C 0C 70
   362)      1111.700 1  Rx        00A8 -  8    00 E0 FF D6 99 64 6E 0E
   363)      1116.692 1  Rx        00EE -  8    00 00 00 00 00 00 40 8F
   364)      1121.684 1  Rx        0152 -  8    EF D9 CE 7C 3D D7 7E 9D
   365)      1126.718 1  Rx        0151 -  8    92 16 FF 7F FC 03 00 7D
   366)      1127.102 1  Rx        01A0 -  8    36 09 71 F2 3F 00 00 00
   367)      1127.315 1  Rx        01AC -  8    19 59 FF F3 BF FF FD 02
   368)      1131.710 1  Rx        018D -  8    00 10 7D B3 00 00 3B 01
   369)      1136.701 1  Rx        03A3 -  8    17 9D 2F 42 42 3F FE CB
   370)      1141.693 1  Rx        00A8 -  8    00 E0 FF D6 99 64 66 0E
   371)      1146.727 1  Rx        00EE -  8    00 00 00 00 00 00 40 8F
   372)      1147.111 1  Rx        01A0 -  8    14 0A 71 F2 3F 00 00 00
   373)      1147.367 1  Rx        01AC -  8    35 5A FF F3 BF FF FD 02
   374)      1151.677 1  Rx        0152 -  8    A7 DA CE 7C 3D D4 7E 9D
   375)      1156.626 1  Rx        03C0 -  4    9F 0D 23 00
   376)      1157.180 1  Rx    1B000085 -  8    85 40 04 03 00 00 00 00
   377)      1161.703 1  Rx        00FD -  8    05 E4 3F 00 00 00 00 00
   378)      1166.694 1  Rx        0504 -  8    FF 06 00 00 26 11 14 11
   379)      1167.078 1  Rx        01A0 -  8    71 0B 71 F2 3F 00 00 00
   380)      1167.334 1  Rx        01AC -  8    9D 5B FF F3 BF FF FD 02
   381)      1171.686 1  Rx        0040 -  8    61 09 00 01 81 00 00 B6
   382)      1176.678 1  Rx        0151 -  8    3A 18 FF 7F FC 03 00 7D
   383)      1181.712 1  Rx        0040 -  8    F8 08 00 01 81 00 00 B4
   384)      1186.704 1  Rx        00A8 -  8    00 E0 FF D6 99 64 78 0E
   385)      1187.088 1  Rx        01A0 -  8    AB 0C 71 F2 3F 00 00 00
   386)      1187.301 1  Rx        01AC -  8    DB 5C FF F3 BF FF FD 02
   387)      1187.557 1  Rx        02C0 -  8    2E 07 39 43 80 1C 0C 70
   388)      1191.695 1  Rx        0151 -  8    17 15 FF FF FC 03 00 7D
   389)      1198.095 1  Rx        01A0 -  8    FF 9F 0F C3 3F 00 00 00
   390)      1201.679 1  Rx        01AC -  8    E0 1F F0 03 42 E2 D1 02
   391)      1206.713 1  Rx        018D -  8    00 00 7D B3 00 00 3B 01
   392)      1207.097 1  Rx        01A0 -  8    E9 0D 71 F2 3F 00 00 00
   393)      1207.353 1  Rx        01AC -  8    E3 5D FF F3 BF FF FD 02
   394)      1211.705 1  Rx        00A8 -  8    00 E0 FF D6 99 64 6E 0E
   395)      1216.696 1  Rx        00EE -  8    00 00 00 00 00 00 40 8F
   396)      1221.688 1  Rx        0152 -  8    EF D9 CE 7C 3D D7 7E 9D
   397)      1226.680 1  Rx        0151 -  8    92 16 FF 7F FC 03 00 7D
   398)      1227.106 1  Rx        01A0 -  8    90 0E 71 F2 3F 00 00 00
   399)      1227.362 1  Rx        01AC -  8    84 5E FF F3 BF FF FD 02
   400)      1231.714 1  Rx        018D -  8    00 10 7D B3 00 00 3B 01
   401)      1236.663 1  Rx        03A3 -  8    17 9D 2F 42 42 3F FE CB
   402)      1241.698 1  Rx        00A8 -  8    00 E0 FF D6 99 64 66 0E
   403)      1246.689 1  Rx        00EE -  8    00 00 00 00 00 00 40 8F
   404)      1247.073 1  Rx        01A0 -  8    83 0F 71 F2 3F 00 00 00
   405)      1247.329 1  Rx        01AC -  8    C6 5F FF F3 BF FF FD 02
   406)      1251.681 1  Rx        0152 -  8    A7 DA CE 7C 3D D4 7E 9D
   407)      1256.630 1  Rx        03C0 -  4    9F 0D 23 00
   408)      1261.707 1  Rx        00FD -  8    05 E4 3F 00 00 00 00 00
   409)      1266.699 1  Rx        0504 -  8    FF 06 00 00 26 11 14 11
   410)      1267.125 1  Rx        01A0 -  8    74 00 71 F2 3F 00 00 00
   411)      1267.339 1  Rx        01AC -  8    65 50 FF F3 BF FF FD 02
   412)      1267.595 1  Rx        02C0 -  8    7F 08 39 43 80 1C 0C 70
   413)      1267.893 1  Rx    17F00085 -  8    20 85 00 00 00 00 01 80
   414)      1268.149 1  Rx    1A5554A7 -  8    42 00 00 00 00 00 00 80
   415)      1271.690 1  Rx        0040 -  8    61 09 00 01 81 00 00 B6
   416)      1276.682 1  Rx        0151 -  8    3A 18 FF 7F FC 03 00 7D
   417)      1281.716 1  Rx        0040 -  8    F8 08 00 01 81 00 00 B4
   418)      1286.708 1  Rx        00A8 -  8    00 E0 FF D6 99 64 78 0E
   419)      1287.092 1  Rx        01A0 -  8    C3 01 71 F2 3F 00 00 00
   420)      1287.348 1  Rx        01AC -  8    AB 51 FF F3 BF FF FD 02
   421)      1291.700 1  Rx        0151 -  8    17 15 FF FF FC 03 00 7D
   422)      1296.691 1  Rx        01A0 -  8    FF 9F 0F C3 3F 00 00 00
   423)      1301.384 1  Rx        0700 -  8    02 3E 80 FF FF FF FF FF
   424)      1301.683 1  Rx        01AC -  8    E0 1F F0 03 42 E2 D1 02
   425)      1306.675 1  Rx        018D -  8    00 00 7D B3 00 00 3B 01
   426)      1307.059 1  Rx        01A0 -  8    B2 02 71 F2 3F 00 00 00
   427)      1307.315 1  Rx        01AC -  8    51 52 FF F3 BF FF FD 02
   428)      1311.667 1  Rx        00A8 -  8    00 E0 FF D6 99 64 6E 0E
   429)      1316.701 1  Rx        00EE -  8    00 00 00 00 00 00 40 8F
   430)      1321.693 1  Rx        0152 -  8    EF D9 CE 7C 3D D7 7E 9D
   431)      1326.684 1  Rx        0151 -  8    92 16 FF 7F FC 03 00 7D
   432)      1327.068 1  Rx        01A0 -  8    C2 03 71 F2 3F 00 00 00
   433)      1327.282 1  Rx        01AC -  8    9B 53 FF F3 BF FF FD 02
   434)      1331.676 1  Rx        018D -  8    00 10 7D B3 00 00 3B 01
   435)      1336.668 1  Rx        03A3 -  8    17 9D 2F 42 42 3F FE CB
   436)      1341.702 1  Rx        00A8 -  8    00 E0 FF D6 99 64 66 0E
   437)      1346.694 1  Rx        00EE -  8    00 00 00 00 00 00 40 8F
   438)      1347.078 1  Rx        01A0 -  8    CE 04 71 F2 3F 00 00 00
   439)      1347.291 1  Rx        01AC -  8    DE 54 FF F3 BF FF FD 02
   440)      1347.547 1  Rx        02C0 -  8    8A 09 39 43 80 1C 0C 70
   441)      1351.685 1  Rx        0152 -  8    A7 DA CE 7C 3D D4 7E 9D
   442)      1356.506 1  Rx        03C0 -  4    9F 0D 23 00
   443)      1357.146 1  Rx    1B000085 -  8    85 40 04 03 00 00 00 00
   444)      1361.669 1  Rx        00FD -  8    05 E4 3F 00 00 00 00 00
   445)      1366.703 1  Rx        0504 -  8    FF 06 00 00 26 11 14 11
   446)      1367.044 1  Rx        01A0 -  8    FB 05 71 F2 3F 00 00 00
   447)      1367.300 1  Rx        01AC -  8    7F 55 FF F3 BF FF FD 02
   448)      1371.695 1  Rx        0040 -  8    61 09 00 01 81 00 00 B6
   449)      1376.686 1  Rx        0151 -  8    3A 18 FF 7F FC 03 00 7D
   450)      1381.678 1  Rx        0040 -  8    F8 08 00 01 81 00 00 B4
   451)      1386.670 1  Rx        00A8 -  8    00 E0 FF D6 99 64 78 0E
   452)      1387.096 1  Rx        01A0 -  8    D9 06 71 F2 3F 00 00 00
   453)      1387.352 1  Rx        01AC -  8    A8 56 FF F3 BF FF FD 02
   454)      1391.662 1  Rx        0151 -  8    17 15 FF FF FC 03 00 7D
   455)      1396.696 1  Rx        01A0 -  8    FF 9F 0F C3 3F 00 00 00
   456)      1401.688 1  Rx        01AC -  8    E0 1F F0 03 42 E2 D1 02
   457)      1406.679 1  Rx        018D -  8    00 00 7D B3 00 00 3B 01
   458)      1407.063 1  Rx        01A0 -  8    31 07 71 F2 3F 00 00 00
   459)      1407.319 1  Rx        01AC -  8    37 57 FF F3 BF FF FD 02
   460)      1411.671 1  Rx        00A8 -  8    00 E0 FF D6 99 64 6E 0E
   461)      1416.705 1  Rx        00EE -  8    00 00 00 00 00 00 40 8F
   462)      1421.654 1  Rx        0152 -  8    EF D9 CE 7C 3D D7 7E 9D
   463)      1426.689 1  Rx        0151 -  8    92 16 FF 7F FC 03 00 7D
   464)      1427.073 1  Rx        01A0 -  8    A0 08 71 F2 3F 00 00 00
   465)      1427.286 1  Rx        01AC -  8    D8 58 FF F3 BF FF FD 02
   466)      1427.542 1  Rx        02C0 -  8    3E 0A 39 43 80 1C 0C 70
   467)      1431.680 1  Rx        018D -  8    00 10 7D B3 00 00 3B 01
   468)      1436.672 1  Rx        03A3 -  8    17 9D 2F 42 42 3F FE CB
   469)      1441.664 1  Rx        00A8 -  8    00 E0 FF D6 99 64 66 0E
   470)      1446.698 1  Rx        00EE -  8    00 00 00 00 00 00 40 8F
   471)      1447.039 1  Rx        01A0 -  8    36 09 71 F2 3F 00 00 00
   472)      1447.295 1  Rx        01AC -  8    19 59 FF F3 BF FF FD 02
   473)      1451.647 1  Rx        0152 -  8    A7 DA CE 7C 3D D4 7E 9D
   474)      1456.511 1  Rx        03C0 -  4    9F 0D 23 00
   475)      1461.673 1  Rx        00FD -  8    05 E4 3F 00 00 00 00 00
   476)      1466.665 1  Rx        0504 -  8    FF 06 00 00 26 11 14 11
   477)      1467.049 1  Rx        01A0 -  8    14 0A 71 F2 3F 00 00 00
   478)      1467.305 1  Rx        01AC -  8    35 5A FF F3 BF FF FD 02
   479)      1471.657 1  Rx        0040 -  8    61 09 00 01 81 00 00 B6
   480)      1476.691 1  Rx        0151 -  8    3A 18 FF 7F FC 03 00 7D
   481)      1481.683 1  Rx        0040 -  8    F8 08 00 01 81 00 00 B4
   482)      1486.674 1  Rx        00A8 -  8    00 E0 FF D6 99 64 78 0E
   483)      1487.101 1  Rx        01A0 -  8    71 0B 71 F2 3F 00 00 00
   484)      1487.314 1  Rx        01AC -  8    9D 5B FF F3 BF FF FD 02
   485)      1491.666 1  Rx        0151 -  8    17 15 FF FF FC 03 00 7D
   486)      1496.658 1  Rx        01A0 -  8    FF 9F 0F C3 3F 00 00 00
   487)      1503.057 1  Rx        01AC -  8    E0 1F F0 03 42 E2 D1 02
   488)      1506.684 1  Rx        018D -  8    00 00 7D B3 00 00 3B 01
   489)      1507.110 1  Rx        01A0 -  8    AB 0C 71 F2 3F 00 00 00
   490)      1507.324 1  Rx        01AC -  8    DB 5C FF F3 BF FF FD 02
   491)      1507.580 1  Rx        02C0 -  8    7B 0B 39 43 80 1C 0C 70
   492)      1511.675 1  Rx        00A8 -  8    00 E0 FF D6 99 64 6E 0E
   493)      1516.667 1  Rx        00EE -  8    00 00 00 00 00 00 40 8F
   494)      1521.659 1  Rx        0152 -  8    EF D9 CE 7C 3D D7 7E 9D
   495)      1526.650 1  Rx        0151 -  8    92 16 FF 7F FC 03 00 7D
   496)      1527.034 1  Rx        01A0 -  8    E9 0D 71 F2 3F 00 00 00
   497)      1527.290 1  Rx        01AC -  8    E3 5D FF F3 BF FF FD 02
   498)      1531.685 1  Rx        018D -  8    00 10 7D B3 00 00 3B 01
   499)      1536.676 1  Rx        03A3 -  8    17 9D 2F 42 42 3F FE CB
   500)      1541.668 1  Rx        00A8 -  8    00 E0 FF D6 99 64 66 0E
   501)      1546.660 1  Rx        00EE -  8    00 00 00 00 00 00 40 8F
   502)      1547.044 1  Rx        01A0 -  8    90 0E 71 F2 3F 00 00 00
   503)      1547.257 1  Rx        01AC -  8    84 5E FF F3 BF FF FD 02
   504)      1551.652 1  Rx        0152 -  8    A7 DA CE 7C 3D D4 7E 9D
   505)      1556.515 1  Rx        03C0 -  4    9F 0D 23 00
   506)      1557.070 1  Rx    1B000085 -  8    85 40 04 03 00 00 00 00
   507)      1561.678 1  Rx        00FD -  8    05 E4 3F 00 00 00 00 00
   508)      1566.669 1  Rx        0504 -  8    FF 06 00 00 26 11 14 11
   509)      1567.053 1  Rx        01A0 -  8    83 0F 71 F2 3F 00 00 00
   510)      1567.267 1  Rx        01AC -  8    C6 5F FF F3 BF FF FD 02
   511)      1571.661 1  Rx        0040 -  8    61 09 00 01 81 00 00 B6
   512)      1576.653 1  Rx        0151 -  8    3A 18 FF 7F FC 03 00 7D
   513)      1581.687 1  Rx        0040 -  8    F8 08 00 01 81 00 00 B4
   514)      1586.679 1  Rx        00A8 -  8    00 E0 FF D6 99 64 78 0E
   515)      1587.063 1  Rx        01A0 -  8    74 00 71 F2 3F 00 00 00
   516)      1587.276 1  Rx        01AC -  8    65 50 FF F3 BF FF FD 02
   517)      1587.532 1  Rx        02C0 -  8    23 0C 39 43 80 1C 0C 70
   518)      1591.670 1  Rx        0151 -  8    17 15 FF FF FC 03 00 7D
   519)      1596.662 1  Rx        01A0 -  8    FF 9F 0F C3 3F 00 00 00
   520)      1601.654 1  Rx        01AC -  8    E0 1F F0 03 42 E2 D1 02
   521)      1606.645 1  Rx        018D -  8    00 00 7D B3 00 00 3B 01
   522)      1607.029 1  Rx        01A0 -  8    C3 01 71 F2 3F 00 00 00
   523)      1607.285 1  Rx        01AC -  8    AB 51 FF F3 BF FF FD 02
   524)      1611.637 1  Rx        00A8 -  8    00 E0 FF D6 99 64 6E 0E
   525)      1616.671 1  Rx        00EE -  8    00 00 00 00 00 00 40 8F
   526)      1621.535 1  Rx        0152 -  8    EF D9 CE 7C 3D D7 7E 9D
   527)      1626.569 1  Rx        0151 -  8    92 16 FF 7F FC 03 00 7D
   528)      1627.039 1  Rx        01A0 -  8    B2 02 71 F2 3F 00 00 00
   529)      1627.295 1  Rx        01AC -  8    51 52 FF F3 BF FF FD 02
   530)      1631.561 1  Rx        018D -  8    00 10 7D B3 00 00 3B 01
   531)      1636.544 1  Rx        03A3 -  8    17 9D 2F 42 42 3F FE CB
   532)      1641.536 1  Rx        00A8 -  8    00 E0 FF D6 99 64 66 0E
   533)      1646.570 1  Rx        00EE -  8    00 00 00 00 00 00 40 8F
   534)      1647.039 1  Rx        01A0 -  8    C2 03 71 F2 3F 00 00 00
   535)      1647.253 1  Rx        01AC -  8    9B 53 FF F3 BF FF FD 02
   536)      1651.562 1  Rx        0152 -  8    A7 DA CE 7C 3D D4 7E 9D
   537)      1656.468 1  Rx        03C0 -  4    9F 0D 23 00
   538)      1661.545 1  Rx        00FD -  8    05 E4 3F 00 00 00 00 00
   539)      1666.537 1  Rx        0504 -  8    FF 06 00 00 26 11 14 11
   540)      1667.006 1  Rx        01A0 -  8    CE 04 71 F2 3F 00 00 00
   541)      1667.262 1  Rx        01AC -  8    DE 54 FF F3 BF FF FD 02
   542)      1667.475 1  Rx        02C0 -  8    4B 0D 39 43 80 1C 0C 70
   543)      1671.571 1  Rx        0040 -  8    61 09 00 01 81 00 00 B6
   544)      1676.563 1  Rx        0151 -  8    3A 18 FF 7F FC 03 00 7D
   545)      1681.554 1  Rx        0040 -  8    F8 08 00 01 81 00 00 B4
   546)      1686.546 1  Rx        00A8 -  8    00 E0 FF D6 99 64 78 0E
   547)      1687.015 1  Rx        01A0 -  8    FB 05 71 F2 3F 00 00 00
   548)      1687.271 1  Rx        01AC -  8    7F 55 FF F3 BF FF FD 02
   549)      1691.538 1  Rx        0151 -  8    17 15 FF FF FC 03 00 7D
   550)      1696.529 1  Rx        01A0 -  8    FF 9F 0F C3 3F 00 00 00
   551)      1701.521 1  Rx        01AC -  8    E0 1F F0 03 42 E2 D1 02
   552)      1706.555 1  Rx        018D -  8    00 00 7D B3 00 00 3B 01
   553)      1707.025 1  Rx        01A0 -  8    D9 06 71 F2 3F 00 00 00
   554)      1707.281 1  Rx        01AC -  8    A8 56 FF F3 BF FF FD 02
   555)      1711.547 1  Rx        00A8 -  8    00 E0 FF D6 99 64 6E 0E
   556)      1716.539 1  Rx        00EE -  8    00 00 00 00 00 00 40 8F
   557)      1721.531 1  Rx        0152 -  8    EF D9 CE 7C 3D D7 7E 9D
   558)      1726.522 1  Rx        0151 -  8    92 16 FF 7F FC 03 00 7D
   559)      1727.034 1  Rx        01A0 -  8    31 07 71 F2 3F 00 00 00
   560)      1727.248 1  Rx        01AC -  8    37 57 FF F3 BF FF FD 02
   561)      1731.557 1  Rx        018D -  8    00 10 7D B3 00 00 3B 01
   562)      1736.548 1  Rx        03A3 -  8    17 9D 2F 42 42 3F FE CB
   563)      1741.540 1  Rx        00A8 -  8    00 E0 FF D6 99 64 66 0E
   564)      1746.532 1  Rx        00EE -  8    00 00 00 00 00 00 40 8F
   565)      1747.044 1  Rx        01A0 -  8    A0 08 71 F2 3F 00 00 00
   566)      1747.300 1  Rx        01AC -  8    D8 58 FF F3 BF FF FD 02
   567)      1747.513 1  Rx        02C0 -  8    D5 0E 39 43 80 1C 0C 70
   568)      1751.523 1  Rx        0152 -  8    A7 DA CE 7C 3D D4 7E 9D
   569)      1756.472 1  Rx        03C0 -  4    9F 0D 23 00
   570)      1757.070 1  Rx    1B000085 -  8    85 40 04 03 00 00 00 00
   571)      1761.549 1  Rx        00FD -  8    05 E4 3F 00 00 00 00 00
   572)      1766.541 1  Rx        0504 -  8    FF 06 00 00 26 11 14 11
   573)      1767.010 1  Rx        01A0 -  8    36 09 71 F2 3F 00 00 00
   574)      1767.266 1  Rx        01AC -  8    19 59 FF F3 BF FF FD 02
   575)      1767.522 1  Rx    17F00085 -  8    20 85 00 00 00 00 01 80
   576)      1767.821 1  Rx    1A5554A7 -  8    42 00 00 00 00 00 00 80
   577)      1771.533 1  Rx        0040 -  8    61 09 00 01 81 00 00 B6
   578)      1776.524 1  Rx        0151 -  8    3A 18 FF 7F FC 03 00 7D
   579)      1781.559 1  Rx        0040 -  8    F8 08 00 01 81 00 00 B4
   580)      1786.550 1  Rx        00A8 -  8    00 E0 FF D6 99 64 78 0E
   581)      1787.020 1  Rx        01A0 -  8    14 0A 71 F2 3F 00 00 00
   582)      1787.276 1  Rx        01AC -  8    35 5A FF F3 BF FF FD 02
   583)      1791.542 1  Rx        0151 -  8    17 15 FF FF FC 03 00 7D
   584)      1796.534 1  Rx        01A0 -  8    FF 9F 0F C3 3F 00 00 00
   585)      1801.526 1  Rx        01AC -  8    E0 1F F0 03 42 E2 D1 02
   586)      1804.981 1  Rx        0700 -  8    02 3E 80 FF FF FF FF FF
   587)      1806.517 1  Rx        018D -  8    00 00 7D B3 00 00 3B 01
   588)      1807.157 1  Rx        01A0 -  8    71 0B 71 F2 3F 00 00 00
   589)      1807.371 1  Rx        01AC -  8    9D 5B FF F3 BF FF FD 02
   590)      1812.917 1  Rx        00A8 -  8    00 E0 FF D6 99 64 6E 0E
   591)      1816.543 1  Rx        00EE -  8    00 00 00 00 00 00 40 8F
   592)      1821.535 1  Rx        0152 -  8    EF D9 CE 7C 3D D7 7E 9D
   593)      1826.527 1  Rx        0151 -  8    92 16 FF 7F FC 03 00 7D
   594)      1826.996 1  Rx        01A0 -  8    AB 0C 71 F2 3F 00 00 00
   595)      1827.252 1  Rx        01AC -  8    DB 5C FF F3 BF FF FD 02
   596)      1827.465 1  Rx        02C0 -  8    F9 0F 39 43 80 1C 0C 70
   597)      1831.518 1  Rx        018D -  8    00 10 7D B3 00 00 3B 01
   598)      1836.510 1  Rx        03A3 -  8    17 9D 2F 42 42 3F FE CB
   599)      1841.544 1  Rx        00A8 -  8    00 E0 FF D6 99 64 66 0E
   600)      1846.536 1  Rx        00EE -  8    00 00 00 00 00 00 40 8F
   601)      1846.963 1  Rx        01A0 -  8    E9 0D 71 F2 3F 00 00 00
   602)      1847.176 1  Rx        01AC -  8    E3 5D FF F3 BF FF FD 02
   603)      1851.528 1  Rx        0152 -  8    A7 DA CE 7C 3D D4 7E 9D
   604)      1856.477 1  Rx        03C0 -  4    9F 0D 23 00
   605)      1861.554 1  Rx        00FD -  8    05 E4 3F 00 00 00 00 00
   606)      1866.545 1  Rx        0504 -  8    FF 06 00 00 26 11 14 11
   607)      1867.015 1  Rx        01A0 -  8    90 0E 71 F2 3F 00 00 00
   608)      1867.228 1  Rx        01AC -  8    84 5E FF F3 BF FF FD 02
   609)      1871.537 1  Rx        0040 -  8    61 09 00 01 81 00 00 B6
   610)      1876.529 1  Rx        0151 -  8    3A 18 FF 7F FC 03 00 7D
   611)      1881.521 1  Rx        0040 -  8    F8 08 00 01 81 00 00 B4
   612)      1886.512 1  Rx        00A8 -  8    00 E0 FF D6 99 64 78 0E
   613)      1886.982 1  Rx        01A0 -  8    83 0F 71 F2 3F 00 00 00
   614)      1887.238 1  Rx        01AC -  8    C6 5F FF F3 BF FF FD 02
   615)      1891.547 1  Rx        0151 -  8    17 15 FF FF FC 03 00 7D
   616)      1896.538 1  Rx        01A0 -  8    FF 9F 0F C3 3F 00 00 00
   617)      1901.530 1  Rx        01AC -  8    E0 1F F0 03 42 E2 D1 02
   618)      1906.522 1  Rx        018D -  8    00 00 7D B3 00 00 3B 01
   619)      1906.991 1  Rx        01A0 -  8    74 00 71 F2 3F 00 00 00
   620)      1907.247 1  Rx        01AC -  8    65 50 FF F3 BF FF FD 02
   621)      1907.460 1  Rx        02C0 -  8    61 00 39 43 80 1C 0C 70
   622)      1911.513 1  Rx        00A8 -  8    00 E0 FF D6 99 64 6E 0E
   623)      1916.548 1  Rx        00EE -  8    00 00 00 00 00 00 40 8F
   624)      1921.539 1  Rx        0152 -  8    EF D9 CE 7C 3D D7 7E 9D
   625)      1926.531 1  Rx        0151 -  8    92 16 FF 7F FC 03 00 7D
   626)      1927.000 1  Rx        01A0 -  8    C3 01 71 F2 3F 00 00 00
   627)      1927.214 1  Rx        01AC -  8    AB 51 FF F3 BF FF FD 02
   628)      1927.512 1  Rx    1A555510 -  8    80 34 4E 30 30 BF 00 00
   629)      1931.523 1  Rx        018D -  8    00 10 7D B3 00 00 3B 01
   630)      1936.514 1  Rx        03A3 -  8    17 9D 2F 42 42 3F FE CB
   631)      1941.506 1  Rx        00A8 -  8    00 E0 FF D6 99 64 66 0E
   632)      1946.540 1  Rx        00EE -  8    00 00 00 00 00 00 40 8F
   633)      1947.010 1  Rx        01A0 -  8    B2 02 71 F2 3F 00 00 00
   634)      1947.223 1  Rx        01AC -  8    51 52 FF F3 BF FF FD 02
   635)      1951.532 1  Rx        0152 -  8    A7 DA CE 7C 3D D4 7E 9D
   636)      1956.439 1  Rx        03C0 -  4    9F 0D 23 00
   637)      1957.078 1  Rx    1B000085 -  8    85 40 04 03 00 00 00 00
   638)      1961.516 1  Rx        00FD -  8    05 E4 3F 00 00 00 00 00
   639)      1966.507 1  Rx        0504 -  8    FF 06 00 00 26 11 14 11
   640)      1966.977 1  Rx        01A0 -  8    C2 03 71 F2 3F 00 00 00
   641)      1967.233 1  Rx        01AC -  8    9B 53 FF F3 BF FF FD 02
   642)      1971.542 1  Rx        0040 -  8    61 09 00 01 81 00 00 B6
   643)      1976.533 1  Rx        0151 -  8    3A 18 FF 7F FC 03 00 7D
   644)      1981.525 1  Rx        0040 -  8    F8 08 00 01 81 00 00 B4
   645)      1986.517 1  Rx        00A8 -  8    00 E0 FF D6 99 64 78 0E
   646)      1986.986 1  Rx        01A0 -  8    CE 04 71 F2 3F 00 00 00
   647)      1987.242 1  Rx        01AC -  8    DE 54 FF F3 BF FF FD 02
   648)      1987.455 1  Rx        02C0 -  8    B9 01 39 43 80 1C 0C 70
   649)      1991.508 1  Rx        0151 -  8    17 15 FF FF FC 03 00 7D
   650)      1996.543 1  Rx        01A0 -  8    FF 9F 0F C3 3F 00 00 00
   651)      2001.534 1  Rx        01AC -  8    E0 1F F0 03 42 E2 D1 02
   652)      2006.526 1  Rx        018D -  8    00 00 7D B3 00 00 3B 01
   653)      2006.995 1  Rx        01A0 -  8    FB 05 71 F2 3F 00 00 00
   654)      2007.209 1  Rx        01AC -  8    7F 55 FF F3 BF FF FD 02
   655)      2011.518 1  Rx        00A8 -  8    00 E0 FF D6 99 64 6E 0E
   656)      2016.509 1  Rx        00EE -  8    00 00 00 00 00 00 40 8F
   657)      2021.501 1  Rx        0152 -  8    EF D9 CE 7C 3D D7 7E 9D
   658)      2026.493 1  Rx        0151 -  8    92 16 FF 7F FC 03 00 7D
   659)      2027.005 1  Rx        01A0 -  8    D9 06 71 F2 3F 00 00 00
   660)      2027.218 1  Rx        01AC -  8    A8 56 FF F3 BF FF FD 02
   661)      2031.527 1  Rx        018D -  8    00 10 7D B3 00 00 3B 01
   662)      2036.519 1  Rx        03A3 -  8    17 9D 2F 42 42 3F FE CB
   663)      2041.511 1  Rx        00A8 -  8    00 E0 FF D6 99 64 66 0E
   664)      2046.502 1  Rx        00EE -  8    00 00 00 00 00 00 40 8F
   665)      2047.014 1  Rx        01A0 -  8    31 07 71 F2 3F 00 00 00
   666)      2047.270 1  Rx        01AC -  8    37 57 FF F3 BF FF FD 02
   667)      2051.494 1  Rx        0152 -  8    A7 DA CE 7C 3D D4 7E 9D
   668)      2056.443 1  Rx        03C0 -  4    9F 0D 23 00
   669)      2061.520 1  Rx        00FD -  8    05 E4 3F 00 00 00 00 00
   670)      2066.512 1  Rx        0504 -  8    FF 06 00 00 26 11 14 11
   671)      2066.981 1  Rx        01A0 -  8    A0 08 71 F2 3F 00 00 00
   672)      2067.237 1  Rx        01AC -  8    D8 58 FF F3 BF FF FD 02
   673)      2067.450 1  Rx        02C0 -  8    46 02 39 43 80 1C 0C 70
   674)      2071.503 1  Rx        0040 -  8    61 09 00 01 81 00 00 B6
   675)      2076.495 1  Rx        0151 -  8    3A 18 FF 7F FC 03 00 7D
   676)      2081.529 1  Rx        0040 -  8    F8 08 00 01 81 00 00 B4
   677)      2086.521 1  Rx        00A8 -  8    00 E0 FF D6 99 64 78 0E
   678)      2086.990 1  Rx        01A0 -  8    36 09 71 F2 3F 00 00 00
   679)      2087.204 1  Rx        01AC -  8    19 59 FF F3 BF FF FD 02
   680)      2091.513 1  Rx        0151 -  8    17 15 FF FF FC 03 00 7D
   681)      2096.504 1  Rx        01A0 -  8    FF 9F 0F C3 3F 00 00 00
   682)      2101.496 1  Rx        01AC -  8    E0 1F F0 03 42 E2 D1 02
   683)      2106.530 1  Rx        018D -  8    00 00 7D B3 00 00 3B 01
   684)      2107.042 1  Rx        01A0 -  8    14 0A 71 F2 3F 00 00 00
   685)      2107.256 1  Rx        01AC -  8    35 5A FF F3 BF FF FD 02
   686)      2111.522 1  Rx        00A8 -  8    00 E0 FF D6 99 64 6E 0E
   687)      2116.514 1  Rx        00EE -  8    00 00 00 00 00 00 40 8F
   688)      2122.913 1  Rx        0152 -  8    EF D9 CE 7C 3D D7 7E 9D
   689)      2126.497 1  Rx        0151 -  8    92 16 FF 7F FC 03 00 7D
   690)      2126.967 1  Rx        01A0 -  8    71 0B 71 F2 3F 00 00 00
   691)      2127.223 1  Rx        01AC -  8    9D 5B FF F3 BF FF FD 02
   692)      2131.489 1  Rx        018D -  8    00 10 7D B3 00 00 3B 01
   693)      2133.153 1  Rx    17FC0085 -  8    03 19 02 0C FF FF FF FF
   694)      2136.481 1  Rx        03A3 -  8    17 9D 2F 42 42 3F FE CB
   695)      2141.515 1  Rx        00A8 -  8    00 E0 FF D6 99 64 66 0E
   696)      2146.507 1  Rx        00EE -  8    00 00 00 00 00 00 40 8F
   697)      2147.104 1  Rx        01A0 -  8    AB 0C 71 F2 3F 00 00 00
   698)      2147.360 1  Rx        01AC -  8    DB 5C FF F3 BF FF FD 02
   699)      2147.573 1  Rx        02C0 -  8    FE 03 39 43 80 1C 0C 70
   700)      2151.498 1  Rx        0152 -  8    A7 DA CE 7C 3D D4 7E 9D
   701)      2156.319 1  Rx        03C0 -  4    9F 0D 23 00
   702)      2157.173 1  Rx    1B000085 -  8    85 40 04 01 00 00 00 00
   703)      2161.524 1  Rx        00FD -  8    05 E4 3F 00 00 00 00 00
   704)      2165.919 1  Rx    17FE0085 -  8    03 7F 19 78 AA AA AA AA
   705)      2166.516 1  Rx        0504 -  8    FF 06 00 00 26 11 14 11
   706)      2167.199 1  Rx        01A0 -  8    E9 0D 71 F2 3F 00 00 00
   707)      2167.455 1  Rx        01AC -  8    E3 5D FF F3 BF FF FD 02
   708)      2171.508 1  Rx        0040 -  8    61 09 00 01 81 00 00 B6
   709)      2176.499 1  Rx        0151 -  8    3A 18 FF 7F FC 03 00 7D
   710)      2181.491 1  Rx        0040 -  8    F8 08 00 01 81 00 00 B4
   711)      2186.483 1  Rx        00A8 -  8    00 E0 FF D6 99 64 78 0E
   712)      2187.123 1  Rx        01A0 -  8    90 0E 71 F2 3F 00 00 00
   713)      2187.336 1  Rx        01AC -  8    84 5E FF F3 BF FF FD 02
   714)      2191.517 1  Rx        0151 -  8    17 15 FF FF FC 03 00 7D
   715)      2195.869 1  Rx    17FE0085 -  8    10 2B 59 02 FF 00 59 31
   716)      2196.509 1  Rx        01A0 -  8    FF 9F 0F C3 3F 00 00 00
   717)      2196.808 1  Rx    17FC0085 -  8    30 00 00 FF FF FF FF FF
   718)      2197.149 1  Rx    17FE0085 -  8    21 28 00 0B 20 28 00 23
   719)      2197.447 1  Rx    17FE0085 -  8    22 31 28 00 0A 1E 28 00
   720)      2197.746 1  Rx    17FE0085 -  8    23 01 03 2F 00 72 56 2F
   721)      2198.045 1  Rx    17FE0085 -  8    24 00 73 56 2F 00 01 05
   722)      2198.343 1  Rx    17FE0085 -  8    25 2F 00 01 07 2F 00 01
   723)      2198.642 1  Rx    17FE0085 -  8    26 57 2F AA AA AA AA AA
   724)      2201.501 1  Rx        01AC -  8    E0 1F F0 03 42 E2 D1 02
   725)      2206.492 1  Rx        018D -  8    00 00 7D B3 00 00 3B 01
   726)      2206.962 1  Rx        01A0 -  8    83 0F 71 F2 3F 00 00 00
   727)      2207.218 1  Rx        01AC -  8    C6 5F FF F3 BF FF FD 02
   728)      2211.484 1  Rx        00A8 -  8    00 E0 FF D6 99 64 6E 0E
   729)      2216.518 1  Rx        00EE -  8    00 00 00 00 00 00 40 8F
   730)      2221.510 1  Rx        0152 -  8    EF D9 CE 7C 3D D7 7E 9D
   731)      2226.502 1  Rx        0151 -  8    92 16 FF 7F FC 03 00 7D
   732)      2226.971 1  Rx        01A0 -  8    74 00 71 F2 3F 00 00 00
   733)      2227.227 1  Rx        01AC -  8    65 50 FF F3 BF FF FD 02
   734)      2227.440 1  Rx        02C0 -  8    67 04 39 43 80 1C 0C 70
   735)      2231.493 1  Rx        018D -  8    00 10 7D B3 00 00 3B 01
   736)      2236.485 1  Rx        03A3 -  8    17 9D 2F 42 42 3F FE CB
   737)      2241.477 1  Rx        00A8 -  8    00 E0 FF D6 99 64 66 0E
   738)      2246.511 1  Rx        00EE -  8    00 00 00 00 00 00 40 8F
   739)      2246.938 1  Rx        01A0 -  8    C3 01 71 F2 3F 00 00 00
   740)      2247.194 1  Rx        01AC -  8    AB 51 FF F3 BF FF FD 02
   741)      2251.503 1  Rx        0152 -  8    A7 DA CE 7C 3D D4 7E 9D
   742)      2256.324 1  Rx        03C0 -  4    9F 0D 23 00
   743)      2261.486 1  Rx        00FD -  8    05 E4 3F 00 00 00 00 00
   744)      2266.478 1  Rx        0504 -  8    FF 06 00 00 26 11 14 11
   745)      2266.947 1  Rx        01A0 -  8    B2 02 71 F2 3F 00 00 00
   746)      2267.203 1  Rx        01AC -  8    51 52 FF F3 BF FF FD 02
   747)      2267.502 1  Rx    17F00085 -  8    20 85 00 00 00 00 01 80
   748)      2267.758 1  Rx    1A5554A7 -  8    42 00 00 00 00 00 00 80
   749)      2271.512 1  Rx        0040 -  8    61 09 00 01 81 00 00 B6
   750)      2276.504 1  Rx        0151 -  8    3A 18 FF 7F FC 03 00 7D
   751)      2281.496 1  Rx        0040 -  8    F8 08 00 01 81 00 00 B4
   752)      2286.487 1  Rx        00A8 -  8    00 E0 FF D6 99 64 78 0E
   753)      2286.999 1  Rx        01A0 -  8    C2 03 71 F2 3F 00 00 00
   754)      2287.255 1  Rx        01AC -  8    9B 53 FF F3 BF FF FD 02
   755)      2291.479 1  Rx        0151 -  8    17 15 FF FF FC 03 00 7D
   756)      2296.513 1  Rx        01A0 -  8    FF 9F 0F C3 3F 00 00 00
   757)      2301.505 1  Rx        01AC -  8    E0 1F F0 03 42 E2 D1 02
   758)      2306.497 1  Rx        018D -  8    00 00 7D B3 00 00 3B 01
   759)      2306.966 1  Rx        01A0 -  8    CE 04 71 F2 3F 00 00 00
   760)      2307.222 1  Rx        01AC -  8    DE 54 FF F3 BF FF FD 02
   761)      2307.435 1  Rx        02C0 -  8    73 05 39 43 80 1C 0C 70
   762)      2311.488 1  Rx        00A8 -  8    00 E0 FF D6 99 64 6E 0E
   763)      2316.480 1  Rx        00EE -  8    00 00 00 00 00 00 40 8F
   764)      2321.472 1  Rx        0152 -  8    EF D9 CE 7C 3D D7 7E 9D
   765)      2326.506 1  Rx        0151 -  8    92 16 FF 7F FC 03 00 7D
   766)      2326.975 1  Rx        01A0 -  8    FB 05 71 F2 3F 00 00 00
   767)      2327.189 1  Rx        01AC -  8    7F 55 FF F3 BF FF FD 02
   768)      2331.498 1  Rx        018D -  8    00 10 7D B3 00 00 3B 01
   769)      2336.489 1  Rx        03A3 -  8    17 9D 2F 42 42 3F FE CB
   770)      2341.481 1  Rx        00A8 -  8    00 E0 FF D6 99 64 66 0E
   771)      2346.515 1  Rx        00EE -  8    00 00 00 00 00 00 40 8F
   772)      2346.985 1  Rx        01A0 -  8    D9 06 71 F2 3F 00 00 00
   773)      2347.241 1  Rx        01AC -  8    A8 56 FF F3 BF FF FD 02
   774)      2351.465 1  Rx        0152 -  8    A7 DA CE 7C 3D D4 7E 9D
   775)      2356.328 1  Rx        03C0 -  4    9F 0D 23 00
   776)      2356.968 1  Rx    1B000085 -  8    85 40 04 03 00 00 00 00
   777)      2361.491 1  Rx        00FD -  8    05 E4 3F 00 00 00 00 00
   778)      2366.482 1  Rx        0504 -  8    FF 06 00 00 26 11 14 11
   779)      2366.952 1  Rx        01A0 -  8    31 07 71 F2 3F 00 00 00
   780)      2367.208 1  Rx        01AC -  8    37 57 FF F3 BF FF FD 02
   781)      2371.474 1  Rx        0040 -  8    61 09 00 01 81 00 00 B6
   782)      2376.466 1  Rx        0151 -  8    3A 18 FF 7F FC 03 00 7D
   783)      2381.500 1  Rx        0040 -  8    F8 08 00 01 81 00 00 B4
   784)      2386.492 1  Rx        00A8 -  8    00 E0 FF D6 99 64 78 0E
   785)      2386.961 1  Rx        01A0 -  8    A0 08 71 F2 3F 00 00 00
   786)      2387.174 1  Rx        01AC -  8    D8 58 FF F3 BF FF FD 02
   787)      2387.430 1  Rx        02C0 -  8    8E 06 39 43 80 1C 0C 70
   788)      2391.483 1  Rx        0151 -  8    17 15 FF FF FC 03 00 7D
   789)      2396.603 1  Rx        01A0 -  8    FF 9F 0F C3 3F 00 00 00
   790)      2401.467 1  Rx        01AC -  8    E0 1F F0 03 42 E2 D1 02
   791)      2406.501 1  Rx        018D -  8    00 00 7D B3 00 00 3B 01
   792)      2406.970 1  Rx        01A0 -  8    36 09 71 F2 3F 00 00 00
   793)      2407.184 1  Rx        01AC -  8    19 59 FF F3 BF FF FD 02
   794)      2407.482 1  Rx    17FC0085 -  8    06 19 06 00 59 31 FF FF
   795)      2411.493 1  Rx        00A8 -  8    00 E0 FF D6 99 64 6E 0E
   796)      2416.484 1  Rx        00EE -  8    00 00 00 00 00 00 40 8F
   797)      2421.476 1  Rx        0152 -  8    EF D9 CE 7C 3D D7 7E 9D
   798)      2426.980 1  Rx        01A0 -  8    14 0A 71 F2 3F 00 00 00
   799)      2427.236 1  Rx        01AC -  8    35 5A FF F3 BF FF FD 02
   800)      2427.876 1  Rx        0151 -  8    92 16 FF 7F FC 03 00 7D
   801)      2431.502 1  Rx        018D -  8    00 10 7D B3 00 00 3B 01
   802)      2435.854 1  Rx    17FE0085 -  8    10 4F 59 06 00 59 31 28
   803)      2436.451 1  Rx        03A3 -  8    17 9D 2F 42 42 3F FE CB
   804)      2436.750 1  Rx    17FC0085 -  8    30 00 00 FF FF FF FF FF
   805)      2437.134 1  Rx    17FE0085 -  8    21 01 04 04 02 FF 00 D3
   806)      2437.432 1  Rx    17FE0085 -  8    22 39 00 00 59 46 78 A1
   807)      2437.731 1  Rx    17FE0085 -  8    23 71 50 99 60 75 75 75
   808)      2438.030 1  Rx    17FE0085 -  8    24 45 82 7F 01 FA 01 FA
   809)      2438.328 1  Rx    17FE0085 -  8    25 01 F5 00 A9 C3 8A 45
   810)      2438.627 1  Rx    17FE0085 -  8    26 83 78 97 5F 67 4E 00
   811)      2438.926 1  Rx    17FE0085 -  8    27 BE 45 84 80 00 00 80
   812)      2439.224 1  Rx    17FE0085 -  8    28 00 45 85 6D 22 00 64
   813)      2439.523 1  Rx    17FE0085 -  8    29 16 96 45 86 01 F4 01
   814)      2439.822 1  Rx    17FE0085 -  8    2A F4 26 65 07 E1 00 10
   815)      2440.120 1  Rx    17FE0085 -  8    2B 00 01 00 AA AA AA AA
   816)      2441.486 1  Rx        00A8 -  8    00 E0 FF D6 99 64 66 0E
   817)      2446.477 1  Rx        00EE -  8    00 00 00 00 00 00 40 8F
   818)      2446.904 1  Rx        01A0 -  8    71 0B 71 F2 3F 00 00 00
   819)      2447.117 1  Rx        01AC -  8    9D 5B FF F3 BF FF FD 02
   820)      2451.469 1  Rx        0152 -  8    A7 DA CE 7C 3D D4 7E 9D
   821)      2456.290 1  Rx        03C0 -  4    9F 0D 23 00
   822)      2461.495 1  Rx        00FD -  8    05 E4 3F 00 00 00 00 00
   823)      2466.487 1  Rx        0504 -  8    FF 06 00 00 26 11 14 11
   824)      2466.999 1  Rx        01A0 -  8    AB 0C 71 F2 3F 00 00 00
   825)      2467.212 1  Rx        01AC -  8    DB 5C FF F3 BF FF FD 02
   826)      2467.468 1  Rx        02C0 -  8    2E 07 39 43 80 1C 0C 70
   827)      2471.478 1  Rx        0040 -  8    61 09 00 01 81 00 00 B6
   828)      2476.470 1  Rx        0151 -  8    3A 18 FF 7F FC 03 00 7D
   829)      2481.462 1  Rx        0040 -  8    F8 08 00 01 81 00 00 B4
   830)      2486.453 1  Rx        00A8 -  8    00 E0 FF D6 99 64 78 0E
   831)      2486.923 1  Rx        01A0 -  8    E9 0D 71 F2 3F 00 00 00
   832)      2487.179 1  Rx        01AC -  8    E3 5D FF F3 BF FF FD 02
   833)      2491.488 1  Rx        0151 -  8    17 15 FF FF FC 03 00 7D
   834)      2496.479 1  Rx        01A0 -  8    FF 9F 0F C3 3F 00 00 00
   835)      2501.471 1  Rx        01AC -  8    E0 1F F0 03 42 E2 D1 02
   836)      2506.463 1  Rx        018D -  8    00 00 7D B3 00 00 3B 01
   837)      2506.932 1  Rx        01A0 -  8    90 0E 71 F2 3F 00 00 00
   838)      2507.188 1  Rx        01AC -  8    84 5E FF F3 BF FF FD 02
   839)      2511.455 1  Rx        00A8 -  8    00 E0 FF D6 99 64 6E 0E
   840)      2516.489 1  Rx        00EE -  8    00 00 00 00 00 00 40 8F
   841)      2521.481 1  Rx        0152 -  8    EF D9 CE 7C 3D D7 7E 9D
   842)      2526.472 1  Rx        0151 -  8    92 16 FF 7F FC 03 00 7D
   843)      2526.984 1  Rx        01A0 -  8    83 0F 71 F2 3F 00 00 00
   844)      2527.198 1  Rx        01AC -  8    C6 5F FF F3 BF FF FD 02
   845)      2531.464 1  Rx        018D -  8    00 10 7D B3 00 00 3B 01
   846)      2536.456 1  Rx        03A3 -  8    17 9D 2F 42 42 3F FE CB
   847)      2541.490 1  Rx        00A8 -  8    00 E0 FF D6 99 64 66 0E
   848)      2546.482 1  Rx        00EE -  8    00 00 00 00 00 00 40 8F
   849)      2546.951 1  Rx        01A0 -  8    74 00 71 F2 3F 00 00 00
   850)      2547.164 1  Rx        01AC -  8    65 50 FF F3 BF FF FD 02
   851)      2547.420 1  Rx        02C0 -  8    7F 08 39 43 80 1C 0C 70
   852)      2551.473 1  Rx        0152 -  8    A7 DA CE 7C 3D D4 7E 9D
   853)      2556.294 1  Rx        03C0 -  4    9F 0D 23 00
   854)      2557.020 1  Rx    1B000085 -  8    85 40 04 03 00 00 00 00
   855)      2561.457 1  Rx        00FD -  8    05 E4 3F 00 00 00 00 00
   856)      2566.448 1  Rx        0504 -  8    FF 06 00 00 26 11 14 11
   857)      2566.918 1  Rx        01A0 -  8    C3 01 71 F2 3F 00 00 00
   858)      2567.174 1  Rx        01AC -  8    AB 51 FF F3 BF FF FD 02
   859)      2571.483 1  Rx        0040 -  8    61 09 00 01 81 00 00 B6
   860)      2576.474 1  Rx        0151 -  8    3A 18 FF 7F FC 03 00 7D
   861)      2581.466 1  Rx        0040 -  8    F8 08 00 01 81 00 00 B4
   862)      2586.458 1  Rx        00A8 -  8    00 E0 FF D6 99 64 78 0E
   863)      2586.970 1  Rx        01A0 -  8    B2 02 71 F2 3F 00 00 00
   864)      2587.226 1  Rx        01AC -  8    51 52 FF F3 BF FF FD 02
   865)      2591.450 1  Rx        0151 -  8    17 15 FF FF FC 03 00 7D
   866)      2596.484 1  Rx        01A0 -  8    FF 9F 0F C3 3F 00 00 00
   867)      2601.476 1  Rx        01AC -  8    E0 1F F0 03 42 E2 D1 02
   868)      2606.467 1  Rx        018D -  8    00 00 7D B3 00 00 3B 01
   869)      2606.937 1  Rx        01A0 -  8    C2 03 71 F2 3F 00 00 00
   870)      2607.150 1  Rx        01AC -  8    9B 53 FF F3 BF FF FD 02
   871)      2611.459 1  Rx        00A8 -  8    00 E0 FF D6 99 64 6E 0E
   872)      2616.493 1  Rx        00EE -  8    00 00 00 00 00 00 40 8F
   873)      2621.570 1  Rx        0152 -  8    EF D9 CE 7C 3D D7 7E 9D
   874)      2626.562 1  Rx        0151 -  8    92 16 FF 7F FC 03 00 7D
   875)      2626.903 1  Rx        01A0 -  8    CE 04 71 F2 3F 00 00 00
   876)      2627.159 1  Rx        01AC -  8    DE 54 FF F3 BF FF FD 02
   877)      2627.415 1  Rx        02C0 -  8    8A 09 39 43 80 1C 0C 70
   878)      2631.554 1  Rx        018D -  8    00 10 7D B3 00 00 3B 01
   879)      2636.565 1  Rx        03A3 -  8    17 9D 2F 42 42 3F FE CB
   880)      2641.600 1  Rx        00A8 -  8    00 E0 FF D6 99 64 66 0E
   881)      2646.591 1  Rx        00EE -  8    00 00 00 00 00 00 40 8F
   882)      2646.975 1  Rx        01A0 -  8    FB 05 71 F2 3F 00 00 00
   883)      2647.231 1  Rx        01AC -  8    7F 55 FF F3 BF FF FD 02
   884)      2651.583 1  Rx        0152 -  8    A7 DA CE 7C 3D D4 7E 9D
   885)      2655.466 1  Rx    17FC0085 -  8    06 19 06 00 0B 20 FF FF
   886)      2656.404 1  Rx        03C0 -  4    9F 0D 23 00
   887)      2661.566 1  Rx        00FD -  8    05 E4 3F 00 00 00 00 00
   888)      2666.558 1  Rx        0504 -  8    FF 06 00 00 26 11 14 11
   889)      2666.985 1  Rx        01A0 -  8    D9 06 71 F2 3F 00 00 00
   890)      2667.241 1  Rx        01AC -  8    A8 56 FF F3 BF FF FD 02
   891)      2671.593 1  Rx        0040 -  8    61 09 00 01 81 00 00 B6
   892)      2676.584 1  Rx        0151 -  8    3A 18 FF 7F FC 03 00 7D
   893)      2681.576 1  Rx        0040 -  8    F8 08 00 01 81 00 00 B4
   894)      2686.568 1  Rx        00A8 -  8    00 E0 FF D6 99 64 78 0E
   895)      2686.994 1  Rx        01A0 -  8    31 07 71 F2 3F 00 00 00
   896)      2687.250 1  Rx        01AC -  8    37 57 FF F3 BF FF FD 02
   897)      2691.559 1  Rx        0151 -  8    17 15 FF FF FC 03 00 7D
   898)      2695.826 1  Rx    17FE0085 -  8    10 4F 59 06 00 0B 20 28
   899)      2696.551 1  Rx    17FC0085 -  8    30 00 00 FF FF FF FF FF
   900)      2696.807 1  Rx        01A0 -  8    FF 9F 0F C3 3F 00 00 00
   901)      2697.106 1  Rx    17FE0085 -  8    21 01 04 01 02 FF 00 D8
   902)      2697.404 1  Rx    17FE0085 -  8    22 FD 00 00 59 5A 78 6F
   903)      2697.660 1  Rx    17FE0085 -  8    23 71 50 99 4A 42 41 3E
   904)      2698.002 1  Rx    17FE0085 -  8    24 45 82 90 02 7E 02 70
   905)      2698.300 1  Rx    17FE0085 -  8    25 02 7B 00 A9 B9 95 45
   906)      2698.599 1  Rx    17FE0085 -  8    26 83 95 95 66 69 4E 00
   907)      2698.897 1  Rx    17FE0085 -  8    27 CA 45 84 57 78 5C 57
   908)      2699.239 1  Rx    17FE0085 -  8    28 00 45 85 6B 95 01 F4
   909)      2699.537 1  Rx    17FE0085 -  8    29 15 74 45 86 01 F4 01
   910)      2699.836 1  Rx    17FE0085 -  8    2A 88 26 65 07 4B 00 10
   911)      2700.135 1  Rx    17FE0085 -  8    2B 00 01 01 AA AA AA AA
   912)      2701.585 1  Rx        01AC -  8    E0 1F F0 03 42 E2 D1 02
   913)      2706.577 1  Rx        018D -  8    00 00 7D B3 00 00 3B 01
   914)      2706.961 1  Rx        01A0 -  8    A0 08 71 F2 3F 00 00 00
   915)      2707.217 1  Rx        01AC -  8    D8 58 FF F3 BF FF FD 02
   916)      2707.473 1  Rx        02C0 -  8    3E 0A 39 43 80 1C 0C 70
   917)      2711.569 1  Rx        00A8 -  8    00 E0 FF D6 99 64 6E 0E
   918)      2716.603 1  Rx        00EE -  8    00 00 00 00 00 00 40 8F
   919)      2721.552 1  Rx        0152 -  8    EF D9 CE 7C 3D D7 7E 9D
   920)      2726.586 1  Rx        0151 -  8    92 16 FF 7F FC 03 00 7D
   921)      2726.928 1  Rx        01A0 -  8    36 09 71 F2 3F 00 00 00
   922)      2727.184 1  Rx        01AC -  8    19 59 FF F3 BF FF FD 02
   923)      2731.578 1  Rx        018D -  8    00 10 7D B3 00 00 3B 01
   924)      2737.978 1  Rx        03A3 -  8    17 9D 2F 42 42 3F FE CB
   925)      2741.561 1  Rx        00A8 -  8    00 E0 FF D6 99 64 66 0E
   926)      2746.596 1  Rx        00EE -  8    00 00 00 00 00 00 40 8F
   927)      2746.937 1  Rx        01A0 -  8    14 0A 71 F2 3F 00 00 00
   928)      2747.193 1  Rx        01AC -  8    35 5A FF F3 BF FF FD 02
   929)      2751.588 1  Rx        0152 -  8    A7 DA CE 7C 3D D4 7E 9D
   930)      2756.409 1  Rx        03C0 -  4    9F 0D 23 00
   931)      2757.006 1  Rx    1B000085 -  8    85 40 04 03 00 00 00 00
   932)      2761.571 1  Rx        00FD -  8    05 E4 3F 00 00 00 00 00
   933)      2766.563 1  Rx        0504 -  8    FF 06 00 00 26 11 14 11
   934)      2766.989 1  Rx        01A0 -  8    71 0B 71 F2 3F 00 00 00
   935)      2767.203 1  Rx        01AC -  8    9D 5B FF F3 BF FF FD 02
   936)      2767.501 1  Rx    17F00085 -  8    20 85 00 00 00 00 01 80
   937)      2767.800 1  Rx    1A5554A7 -  8    42 00 00 00 00 00 00 80
   938)      2771.554 1  Rx        0040 -  8    61 09 00 01 81 00 00 B6
   939)      2776.589 1  Rx        0151 -  8    3A 18 FF 7F FC 03 00 7D
   940)      2781.580 1  Rx        0040 -  8    F8 08 00 01 81 00 00 B4
   941)      2786.572 1  Rx        00A8 -  8    00 E0 FF D6 99 64 78 0E
   942)      2786.913 1  Rx        01A0 -  8    AB 0C 71 F2 3F 00 00 00
   943)      2787.169 1  Rx        01AC -  8    DB 5C FF F3 BF FF FD 02
   944)      2787.425 1  Rx        02C0 -  8    7B 0B 39 43 80 1C 0C 70
   945)      2791.564 1  Rx        0151 -  8    17 15 FF FF FC 03 00 7D
   946)      2796.555 1  Rx        01A0 -  8    FF 9F 0F C3 3F 00 00 00
   947)      2801.547 1  Rx        01AC -  8    E0 1F F0 03 42 E2 D1 02
   948)      2806.581 1  Rx        018D -  8    00 00 7D B3 00 00 3B 01
   949)      2806.923 1  Rx        01A0 -  8    E9 0D 71 F2 3F 00 00 00
   950)      2807.179 1  Rx        01AC -  8    E3 5D FF F3 BF FF FD 02
   951)      2811.573 1  Rx        00A8 -  8    00 E0 FF D6 99 64 6E 0E
   952)      2816.565 1  Rx        00EE -  8    00 00 00 00 00 00 40 8F
   953)      2821.556 1  Rx        0152 -  8    EF D9 CE 7C 3D D7 7E 9D
   954)      2826.548 1  Rx        0151 -  8    92 16 FF 7F FC 03 00 7D
   955)      2826.975 1  Rx        01A0 -  8    90 0E 71 F2 3F 00 00 00
   956)      2827.188 1  Rx        01AC -  8    84 5E FF F3 BF FF FD 02
   957)      2831.583 1  Rx        018D -  8    00 10 7D B3 00 00 3B 01
   958)      2836.574 1  Rx        03A3 -  8    17 9D 2F 42 42 3F FE CB
   959)      2841.566 1  Rx        00A8 -  8    00 E0 FF D6 99 64 66 0E
   960)      2846.558 1  Rx        00EE -  8    00 00 00 00 00 00 40 8F
   961)      2846.856 1  Rx        01A0 -  8    83 0F 71 F2 3F 00 00 00
   962)      2847.112 1  Rx        01AC -  8    C6 5F FF F3 BF FF FD 02
   963)      2851.549 1  Rx        0152 -  8    A7 DA CE 7C 3D D4 7E 9D
   964)      2856.413 1  Rx        03C0 -  4    9F 0D 23 00
   965)      2861.575 1  Rx        00FD -  8    05 E4 3F 00 00 00 00 00
   966)      2866.567 1  Rx        0504 -  8    FF 06 00 00 26 11 14 11
   967)      2866.908 1  Rx        01A0 -  8    74 00 71 F2 3F 00 00 00
   968)      2867.164 1  Rx        01AC -  8    65 50 FF F3 BF FF FD 02
   969)      2867.378 1  Rx        02C0 -  8    23 0C 39 43 80 1C 0C 70
   970)      2871.559 1  Rx        0040 -  8    61 09 00 01 81 00 00 B6
   971)      2876.550 1  Rx        0151 -  8    3A 18 FF 7F FC 03 00 7D
   972)      2881.585 1  Rx        0040 -  8    F8 08 00 01 81 00 00 B4
   973)      2886.576 1  Rx        00A8 -  8    00 E0 FF D6 99 64 78 0E
   974)      2886.960 1  Rx        01A0 -  8    C3 01 71 F2 3F 00 00 00
   975)      2887.216 1  Rx        01AC -  8    AB 51 FF F3 BF FF FD 02
   976)      2887.472 1  Rx    1A555510 -  8    81 32 38 52 20 93 00 00
   977)      2891.568 1  Rx        0151 -  8    17 15 FF FF FC 03 00 7D
   978)      2896.560 1  Rx        01A0 -  8    FF 9F 0F C3 3F 00 00 00
   979)      2901.551 1  Rx        01AC -  8    E0 1F F0 03 42 E2 D1 02
   980)      2906.543 1  Rx        018D -  8    00 00 7D B3 00 00 3B 01
   981)      2906.884 1  Rx        01A0 -  8    B2 02 71 F2 3F 00 00 00
   982)      2907.098 1  Rx        01AC -  8    51 52 FF F3 BF FF FD 02
   983)      2911.535 1  Rx        00A8 -  8    00 E0 FF D6 99 64 6E 0E
   984)      2912.047 1  Rx    17FC0085 -  8    06 19 06 00 23 31 FF FF
   985)      2916.569 1  Rx        00EE -  8    00 00 00 00 00 00 40 8F
   986)      2921.561 1  Rx        0152 -  8    EF D9 CE 7C 3D D7 7E 9D
   987)      2926.553 1  Rx        0151 -  8    92 16 FF 7F FC 03 00 7D
   988)      2926.979 1  Rx        01A0 -  8    C2 03 71 F2 3F 00 00 00
   989)      2927.193 1  Rx        01AC -  8    9B 53 FF F3 BF FF FD 02
   990)      2931.544 1  Rx        018D -  8    00 10 7D B3 00 00 3B 01
   991)      2936.536 1  Rx        03A3 -  8    17 9D 2F 42 42 3F FE CB
   992)      2941.570 1  Rx        00A8 -  8    00 E0 FF D6 99 64 66 0E
   993)      2945.794 1  Rx    17FE0085 -  8    10 4F 59 06 00 23 31 28
   994)      2946.562 1  Rx    17FC0085 -  8    30 00 00 FF FF FF FF FF
   995)      2946.775 1  Rx        00EE -  8    00 00 00 00 00 00 40 8F
   996)      2947.074 1  Rx    17FE0085 -  8    21 01 04 01 02 FF 00 D3
   997)      2947.330 1  Rx        01A0 -  8    CE 04 71 F2 3F 00 00 00
   998)      2947.543 1  Rx        01AC -  8    DE 54 FF F3 BF FF FD 02
   999)      2947.799 1  Rx        02C0 -  8    4B 0D 39 43 80 1C 0C 70
  1000)      2948.055 1  Rx    17FE0085 -  8    22 39 00 00 59 46 78 A1
  1001)      2948.354 1  Rx    17FE0085 -  8    23 71 50 99 60 75 75 75
  1002)      2948.653 1  Rx    17FE0085 -  8    24 45 82 7F 01 FB 01 FB
  1003)      2948.951 1  Rx    17FE0085 -  8    25 01 F5 00 A9 C3 8A 45
  1004)      2949.292 1  Rx    17FE0085 -  8    26 83 77 95 5F 67 4E 00
  1005)      2949.591 1  Rx    17FE0085 -  8    27 BE 45 84 80 84 80 80
  1006)      2949.890 1  Rx    17FE0085 -  8    28 00 45 85 6B 21 00 32
  1007)      2950.188 1  Rx    17FE0085 -  8    29 16 8E 45 86 01 F4 01
  1008)      2950.487 1  Rx    17FE0085 -  8    2A F4 26 65 07 E1 00 10
  1009)      2950.786 1  Rx    17FE0085 -  8    2B 00 01 01 AA AA AA AA
  1010)      2951.554 1  Rx        0152 -  8    A7 DA CE 7C 3D D4 7E 9D
  1011)      2956.375 1  Rx        03C0 -  4    9F 0D 23 00
  1012)      2956.972 1  Rx    1B000085 -  8    85 40 04 03 00 00 00 00
  1013)      2961.580 1  Rx        00FD -  8    05 E4 3F 00 00 00 00 00
  1014)      2966.571 1  Rx        0504 -  8    FF 06 00 00 26 11 14 11
  1015)      2966.913 1  Rx        01A0 -  8    FB 05 71 F2 3F 00 00 00
  1016)      2967.169 1  Rx        01AC -  8    7F 55 FF F3 BF FF FD 02
  1017)      2971.563 1  Rx        0040 -  8    61 09 00 01 81 00 00 B6
  1018)      2976.555 1  Rx        0151 -  8    3A 18 FF 7F FC 03 00 7D
  1019)      2981.546 1  Rx        0040 -  8    F8 08 00 01 81 00 00 B4
  1020)      2986.538 1  Rx        00A8 -  8    00 E0 FF D6 99 64 78 0E
  1021)      2986.922 1  Rx        01A0 -  8    D9 06 71 F2 3F 00 00 00
  1022)      2987.135 1  Rx        01AC -  8    A8 56 FF F3 BF FF FD 02
  1023)      2991.573 1  Rx        0151 -  8    17 15 FF FF FC 03 00 7D
  1024)      2996.564 1  Rx        01A0 -  8    FF 9F 0F C3 3F 00 00 00
  1025)      3001.556 1  Rx        01AC -  8    E0 1F F0 03 42 E2 D1 02
  1026)      3006.548 1  Rx        018D -  8    00 00 7D B3 00 00 3B 01
  1027)      3006.932 1  Rx        01A0 -  8    31 07 71 F2 3F 00 00 00
  1028)      3007.188 1  Rx        01AC -  8    37 57 FF F3 BF FF FD 02
  1029)      3011.539 1  Rx        00A8 -  8    00 E0 FF D6 99 64 6E 0E
  1030)      3016.574 1  Rx        00EE -  8    00 00 00 00 00 00 40 8F
  1031)      3021.523 1  Rx        0152 -  8    EF D9 CE 7C 3D D7 7E 9D
  1032)      3026.557 1  Rx        0151 -  8    92 16 FF 7F FC 03 00 7D
  1033)      3026.898 1  Rx        01A0 -  8    A0 08 71 F2 3F 00 00 00
  1034)      3027.154 1  Rx        01AC -  8    D8 58 FF F3 BF FF FD 02
  1035)      3027.368 1  Rx        02C0 -  8    D5 0E 39 43 80 1C 0C 70
  1036)      3031.549 1  Rx        018D -  8    00 10 7D B3 00 00 3B 01
  1037)      3036.540 1  Rx        03A3 -  8    17 9D 2F 42 42 3F FE CB
  1038)      3041.532 1  Rx        00A8 -  8    00 E0 FF D6 99 64 66 0E
  1039)      3046.865 1  Rx        01A0 -  8    36 09 71 F2 3F 00 00 00
  1040)      3047.078 1  Rx        01AC -  8    19 59 FF F3 BF FF FD 02
  1041)      3047.974 1  Rx        00EE -  8    00 00 00 00 00 00 40 8F
  1042)      3051.558 1  Rx        0152 -  8    A7 DA CE 7C 3D D4 7E 9D
  1043)      3056.379 1  Rx        03C0 -  4    9F 0D 23 00
  1044)      3061.541 1  Rx        00FD -  8    05 E4 3F 00 00 00 00 00
  1045)      3066.533 1  Rx        0504 -  8    FF 06 00 00 26 11 14 11
  1046)      3066.960 1  Rx        01A0 -  8    14 0A 71 F2 3F 00 00 00
  1047)      3067.173 1  Rx        01AC -  8    35 5A FF F3 BF FF FD 02
  1048)      3071.568 1  Rx        0040 -  8    61 09 00 01 81 00 00 B6
  1049)      3076.559 1  Rx        0151 -  8    3A 18 FF 7F FC 03 00 7D
  1050)      3081.551 1  Rx        0040 -  8    F8 08 00 01 81 00 00 B4
  1051)      3086.543 1  Rx        00A8 -  8    00 E0 FF D6 99 64 78 0E
  1052)      3086.884 1  Rx        01A0 -  8    71 0B 71 F2 3F 00 00 00
  1053)      3087.140 1  Rx        01AC -  8    9D 5B FF F3 BF FF FD 02
  1054)      3091.534 1  Rx        0151 -  8    17 15 FF FF FC 03 00 7D
  1055)      3096.526 1  Rx        01A0 -  8    FF 9F 0F C3 3F 00 00 00
  1056)      3101.518 1  Rx        01AC -  8    E0 1F F0 03 42 E2 D1 02
  1057)      3106.552 1  Rx        018D -  8    00 00 7D B3 00 00 3B 01
  1058)      3106.851 1  Rx        01A0 -  8    AB 0C 71 F2 3F 00 00 00
  1059)      3107.107 1  Rx        01AC -  8    DB 5C FF F3 BF FF FD 02
  1060)      3107.320 1  Rx        02C0 -  8    F9 0F 39 43 80 1C 0C 70
  1061)      3111.544 1  Rx        00A8 -  8    00 E0 FF D6 99 64 6E 0E
  1062)      3116.535 1  Rx        00EE -  8    00 00 00 00 00 00 40 8F
  1063)      3121.527 1  Rx        0152 -  8    EF D9 CE 7C 3D D7 7E 9D
  1064)      3126.519 1  Rx        0151 -  8    92 16 FF 7F FC 03 00 7D
  1065)      3126.945 1  Rx        01A0 -  8    E9 0D 71 F2 3F 00 00 00
  1066)      3127.159 1  Rx        01AC -  8    E3 5D FF F3 BF FF FD 02
  1067)      3131.553 1  Rx        018D -  8    00 10 7D B3 00 00 3B 01
  1068)      3136.545 1  Rx        03A3 -  8    17 9D 2F 42 42 3F FE CB
  1069)      3141.536 1  Rx        00A8 -  8    00 E0 FF D6 99 64 66 0E
  1070)      3146.528 1  Rx        00EE -  8    00 00 00 00 00 00 40 8F
  1071)      3146.827 1  Rx        01A0 -  8    90 0E 71 F2 3F 00 00 00
  1072)      3147.083 1  Rx        01AC -  8    84 5E FF F3 BF FF FD 02
  1073)      3151.520 1  Rx        0152 -  8    A7 DA CE 7C 3D D4 7E 9D
  1074)      3156.384 1  Rx        03C0 -  4    9F 0D 23 00
  1075)      3156.981 1  Rx    1B000085 -  8    85 40 04 03 00 00 00 00
  1076)      3161.546 1  Rx        00FD -  8    05 E4 3F 00 00 00 00 00
  1077)      3165.215 1  Rx    17FC0085 -  8    06 19 06 00 0A 1E FF FF
  1078)      3165.770 1  Rx    17FE0085 -  8    03 7F 19 78 AA AA AA AA
  1079)      3166.538 1  Rx        0504 -  8    FF 06 00 00 26 11 14 11
  1080)      3167.135 1  Rx        01A0 -  8    83 0F 71 F2 3F 00 00 00
  1081)      3167.348 1  Rx        01AC -  8    C6 5F FF F3 BF FF FD 02
  1082)      3171.529 1  Rx        0040 -  8    61 09 00 01 81 00 00 B6
  1083)      3176.521 1  Rx        0151 -  8    3A 18 FF 7F FC 03 00 7D
  1084)      3181.555 1  Rx        0040 -  8    F8 08 00 01 81 00 00 B4
  1085)      3186.547 1  Rx        00A8 -  8    00 E0 FF D6 99 64 78 0E
  1086)      3187.016 1  Rx        01A0 -  8    74 00 71 F2 3F 00 00 00
  1087)      3187.272 1  Rx        01AC -  8    65 50 FF F3 BF FF FD 02
  1088)      3187.486 1  Rx        02C0 -  8    61 00 39 43 80 1C 0C 70
  1089)      3191.539 1  Rx        0151 -  8    17 15 FF FF FC 03 00 7D
  1090)      3195.762 1  Rx    17FE0085 -  8    10 4F 59 06 00 0A 1E 28
  1091)      3196.530 1  Rx    17FC0085 -  8    30 00 00 FF FF FF FF FF
  1092)      3196.744 1  Rx        01A0 -  8    FF 9F 0F C3 3F 00 00 00
  1093)      3197.042 1  Rx    17FE0085 -  8    21 01 04 01 02 FF 00 D8
  1094)      3197.341 1  Rx    17FE0085 -  8    22 FD 00 00 59 5A 78 6F
  1095)      3197.640 1  Rx    17FE0085 -  8    23 71 50 99 4A 42 41 3E
  1096)      3197.938 1  Rx    17FE0085 -  8    24 45 82 90 02 7B 02 70
  1097)      3198.280 1  Rx    17FE0085 -  8    25 02 79 00 A9 B9 95 45
  1098)      3198.578 1  Rx    17FE0085 -  8    26 83 95 95 66 69 4E 00
  1099)      3198.877 1  Rx    17FE0085 -  8    27 CA 45 84 57 78 5C 57
  1100)      3199.176 1  Rx    17FE0085 -  8    28 00 45 85 6B 95 01 F4
  1101)      3199.474 1  Rx    17FE0085 -  8    29 15 74 45 86 01 F4 01
  1102)      3199.773 1  Rx    17FE0085 -  8    2A 88 26 65 07 4B 00 10
  1103)      3200.071 1  Rx    17FE0085 -  8    2B 00 01 01 AA AA AA AA
  1104)      3201.522 1  Rx        01AC -  8    E0 1F F0 03 42 E2 D1 02
  1105)      3206.556 1  Rx        018D -  8    00 00 7D B3 00 00 3B 01
  1106)      3206.898 1  Rx        01A0 -  8    C3 01 71 F2 3F 00 00 00
  1107)      3207.111 1  Rx        01AC -  8    AB 51 FF F3 BF FF FD 02
  1108)      3211.548 1  Rx        00A8 -  8    00 E0 FF D6 99 64 6E 0E
  1109)      3216.540 1  Rx        00EE -  8    00 00 00 00 00 00 40 8F
  1110)      3221.531 1  Rx        0152 -  8    EF D9 CE 7C 3D D7 7E 9D
  1111)      3226.523 1  Rx        0151 -  8    92 16 FF 7F FC 03 00 7D
  1112)      3226.864 1  Rx        01A0 -  8    B2 02 71 F2 3F 00 00 00
  1113)      3227.120 1  Rx        01AC -  8    51 52 FF F3 BF FF FD 02
  1114)      3231.515 1  Rx        018D -  8    00 10 7D B3 00 00 3B 01
  1115)      3236.507 1  Rx        03A3 -  8    17 9D 2F 42 42 3F FE CB
  1116)      3241.541 1  Rx        00A8 -  8    00 E0 FF D6 99 64 66 0E
  1117)      3246.533 1  Rx        00EE -  8    00 00 00 00 00 00 40 8F
  1118)      3246.917 1  Rx        01A0 -  8    C2 03 71 F2 3F 00 00 00
  1119)      3247.173 1  Rx        01AC -  8    9B 53 FF F3 BF FF FD 02
  1120)      3251.524 1  Rx        0152 -  8    A7 DA CE 7C 3D D4 7E 9D
  1121)      3256.345 1  Rx        03C0 -  4    9F 0D 23 00
  1122)      3261.550 1  Rx        00FD -  8    05 E4 3F 00 00 00 00 00
  1123)      3266.542 1  Rx        0504 -  8    FF 06 00 00 26 11 14 11
  1124)      3266.883 1  Rx        01A0 -  8    CE 04 71 F2 3F 00 00 00
  1125)      3267.139 1  Rx        01AC -  8    DE 54 FF F3 BF FF FD 02
  1126)      3267.353 1  Rx        02C0 -  8    B9 01 39 43 80 1C 0C 70
  1127)      3267.651 1  Rx    17F00085 -  8    20 85 00 00 00 00 01 80
  1128)      3267.950 1  Rx    1A5554A7 -  8    42 00 00 00 00 00 00 80
  1129)      3271.534 1  Rx        0040 -  8    61 09 00 01 81 00 00 B6
  1130)      3276.525 1  Rx        0151 -  8    3A 18 FF 7F FC 03 00 7D
  1131)      3281.517 1  Rx        0040 -  8    F8 08 00 01 81 00 00 B4
  1132)      3286.509 1  Rx        00A8 -  8    00 E0 FF D6 99 64 78 0E
  1133)      3286.893 1  Rx        01A0 -  8    FB 05 71 F2 3F 00 00 00
  1134)      3287.106 1  Rx        01AC -  8    7F 55 FF F3 BF FF FD 02
  1135)      3291.543 1  Rx        0151 -  8    17 15 FF FF FC 03 00 7D
  1136)      3296.535 1  Rx        01A0 -  8    FF 9F 0F C3 3F 00 00 00
  1137)      3301.526 1  Rx        01AC -  8    E0 1F F0 03 42 E2 D1 02
  1138)      3306.518 1  Rx        018D -  8    00 00 7D B3 00 00 3B 01
  1139)      3306.859 1  Rx        01A0 -  8    D9 06 71 F2 3F 00 00 00
  1140)      3307.115 1  Rx        01AC -  8    A8 56 FF F3 BF FF FD 02
  1141)      3311.510 1  Rx        00A8 -  8    00 E0 FF D6 99 64 6E 0E
  1142)      3316.544 1  Rx        00EE -  8    00 00 00 00 00 00 40 8F
  1143)      3321.536 1  Rx        0152 -  8    EF D9 CE 7C 3D D7 7E 9D
  1144)      3326.528 1  Rx        0151 -  8    92 16 FF 7F FC 03 00 7D
  1145)      3326.869 1  Rx        01A0 -  8    31 07 71 F2 3F 00 00 00
  1146)      3327.125 1  Rx        01AC -  8    37 57 FF F3 BF FF FD 02
  1147)      3331.519 1  Rx        018D -  8    00 10 7D B3 00 00 3B 01
  1148)      3336.511 1  Rx        03A3 -  8    17 9D 2F 42 42 3F FE CB
  1149)      3341.503 1  Rx        00A8 -  8    00 E0 FF D6 99 64 66 0E
  1150)      3346.537 1  Rx        00EE -  8    00 00 00 00 00 00 40 8F
  1151)      3346.878 1  Rx        01A0 -  8    A0 08 71 F2 3F 00 00 00
  1152)      3347.092 1  Rx        01AC -  8    D8 58 FF F3 BF FF FD 02
  1153)      3347.348 1  Rx        02C0 -  8    46 02 39 43 80 1C 0C 70
  1154)      3352.894 1  Rx        0152 -  8    A7 DA CE 7C 3D D4 7E 9D
  1155)      3356.350 1  Rx        03C0 -  4    9F 0D 23 00
  1156)      3356.947 1  Rx    1B000085 -  8    85 40 04 03 00 00 00 00
  1157)      3361.512 1  Rx        00FD -  8    05 E4 3F 00 00 00 00 00
  1158)      3366.504 1  Rx        0504 -  8    FF 06 00 00 26 11 14 11
  1159)      3366.930 1  Rx        01A0 -  8    36 09 71 F2 3F 00 00 00
  1160)      3367.144 1  Rx        01AC -  8    19 59 FF F3 BF FF FD 02
  1161)      3371.538 1  Rx        0040 -  8    61 09 00 01 81 00 00 B6
  1162)      3376.530 1  Rx        0151 -  8    3A 18 FF 7F FC 03 00 7D
  1163)      3381.521 1  Rx        0040 -  8    F8 08 00 01 81 00 00 B4
  1164)      3386.513 1  Rx        00A8 -  8    00 E0 FF D6 99 64 78 0E
  1165)      3386.854 1  Rx        01A0 -  8    14 0A 71 F2 3F 00 00 00
  1166)      3387.110 1  Rx        01AC -  8    35 5A FF F3 BF FF FD 02
  1167)      3391.505 1  Rx        0151 -  8    17 15 FF FF FC 03 00 7D
  1168)      3396.539 1  Rx        01A0 -  8    FF 9F 0F C3 3F 00 00 00
  1169)      3401.531 1  Rx        01AC -  8    E0 1F F0 03 42 E2 D1 02
  1170)      3406.523 1  Rx        018D -  8    00 00 7D B3 00 00 3B 01
  1171)      3406.864 1  Rx        01A0 -  8    71 0B 71 F2 3F 00 00 00
  1172)      3407.120 1  Rx        01AC -  8    9D 5B FF F3 BF FF FD 02
  1173)      3411.557 1  Rx    17FC0085 -  8    06 19 06 00 01 03 FF FF
  1174)      3411.813 1  Rx        00A8 -  8    00 E0 FF D6 99 64 6E 0E
  1175)      3416.506 1  Rx        00EE -  8    00 00 00 00 00 00 40 8F
  1176)      3421.498 1  Rx        0152 -  8    EF D9 CE 7C 3D D7 7E 9D
  1177)      3426.489 1  Rx        0151 -  8    92 16 FF 7F FC 03 00 7D
  1178)      3427.001 1  Rx        01A0 -  8    AB 0C 71 F2 3F 00 00 00
  1179)      3427.257 1  Rx        01AC -  8    DB 5C FF F3 BF FF FD 02
  1180)      3427.471 1  Rx        02C0 -  8    FE 03 39 43 80 1C 0C 70
  1181)      3431.524 1  Rx        018D -  8    00 10 7D B3 00 00 3B 01
  1182)      3436.515 1  Rx        03A3 -  8    17 9D 2F 42 42 3F FE CB
  1183)      3441.507 1  Rx        00A8 -  8    00 E0 FF D6 99 64 66 0E
  1184)      3445.731 1  Rx    17FE0085 -  8    03 7F 19 78 AA AA AA AA
  1185)      3446.541 1  Rx        00EE -  8    00 00 00 00 00 00 40 8F
  1186)      3447.053 1  Rx        01A0 -  8    E9 0D 71 F2 3F 00 00 00
  1187)      3447.309 1  Rx        01AC -  8    E3 5D FF F3 BF FF FD 02
  1188)      3451.490 1  Rx        0152 -  8    A7 DA CE 7C 3D D4 7E 9D
  1189)      3456.354 1  Rx        03C0 -  4    9F 0D 23 00
  1190)      3461.516 1  Rx        00FD -  8    05 E4 3F 00 00 00 00 00
  1191)      3465.740 1  Rx    17FE0085 -  8    10 4F 59 06 00 01 03 2F
  1192)      3466.508 1  Rx    17FC0085 -  8    30 00 00 FF FF FF FF FF
  1193)      3466.721 1  Rx        0504 -  8    FF 06 00 00 26 11 14 11
  1194)      3467.020 1  Rx    17FE0085 -  8    21 01 06 01 02 20 00 D9
  1195)      3467.233 1  Rx        01A0 -  8    90 0E 71 F2 3F 00 00 00
  1196)      3467.489 1  Rx        01AC -  8    84 5E FF F3 BF FF FD 02
  1197)      3467.788 1  Rx    17FE0085 -  8    22 0E 00 00 5A 20 8E F1
  1198)      3468.044 1  Rx    17FE0085 -  8    23 71 50 99 41 42 41 41
  1199)      3468.343 1  Rx    17FE0085 -  8    24 45 82 7F 01 F6 01 F5
  1200)      3468.641 1  Rx    17FE0085 -  8    25 01 F5 00 A9 9F AF 45
  1201)      3468.940 1  Rx    17FE0085 -  8    26 83 87 95 60 66 00 00
  1202)      3469.239 1  Rx    17FE0085 -  8    27 B3 45 84 80 EC 00 7A
  1203)      3469.537 1  Rx    17FE0085 -  8    28 00 45 85 4E 20 00 C8
  1204)      3469.836 1  Rx    17FE0085 -  8    29 0E 66 45 86 01 F4 01
  1205)      3470.135 1  Rx    17FE0085 -  8    2A F4 26 65 07 FA 00 10
  1206)      3470.433 1  Rx    17FE0085 -  8    2B 00 01 01 AA AA AA AA
  1207)      3471.500 1  Rx        0040 -  8    61 09 00 01 81 00 00 B6
  1208)      3476.492 1  Rx        0151 -  8    3A 18 FF 7F FC 03 00 7D
  1209)      3481.526 1  Rx        0040 -  8    F8 08 00 01 81 00 00 B4
  1210)      3486.518 1  Rx        00A8 -  8    00 E0 FF D6 99 64 78 0E
  1211)      3486.902 1  Rx        01A0 -  8    83 0F 71 F2 3F 00 00 00
  1212)      3487.158 1  Rx        01AC -  8    C6 5F FF F3 BF FF FD 02
  1213)      3491.509 1  Rx        0151 -  8    17 15 FF FF FC 03 00 7D
  1214)      3496.501 1  Rx        01A0 -  8    FF 9F 0F C3 3F 00 00 00
  1215)      3501.493 1  Rx        01AC -  8    E0 1F F0 03 42 E2 D1 02
  1216)      3506.527 1  Rx        018D -  8    00 00 7D B3 00 00 3B 01
  1217)      3506.826 1  Rx        01A0 -  8    74 00 71 F2 3F 00 00 00
  1218)      3507.039 1  Rx        01AC -  8    65 50 FF F3 BF FF FD 02
  1219)      3507.295 1  Rx        02C0 -  8    67 04 39 43 80 1C 0C 70
  1220)      3511.519 1  Rx        00A8 -  8    00 E0 FF D6 99 64 6E 0E
  1221)      3516.510 1  Rx        00EE -  8    00 00 00 00 00 00 40 8F
  1222)      3521.502 1  Rx        0152 -  8    EF D9 CE 7C 3D D7 7E 9D
  1223)      3526.494 1  Rx        0151 -  8    92 16 FF 7F FC 03 00 7D
  1224)      3526.835 1  Rx        01A0 -  8    C3 01 71 F2 3F 00 00 00
  1225)      3527.091 1  Rx        01AC -  8    AB 51 FF F3 BF FF FD 02
  1226)      3531.485 1  Rx        018D -  8    00 10 7D B3 00 00 3B 01
  1227)      3536.477 1  Rx        03A3 -  8    17 9D 2F 42 42 3F FE CB
  1228)      3541.511 1  Rx        00A8 -  8    00 E0 FF D6 99 64 66 0E
  1229)      3546.503 1  Rx        00EE -  8    00 00 00 00 00 00 40 8F
  1230)      3546.887 1  Rx        01A0 -  8    B2 02 71 F2 3F 00 00 00
  1231)      3547.143 1  Rx        01AC -  8    51 52 FF F3 BF FF FD 02
  1232)      3551.495 1  Rx        0152 -  8    A7 DA CE 7C 3D D4 7E 9D
  1233)      3556.316 1  Rx        03C0 -  4    9F 0D 23 00
  1234)      3556.913 1  Rx    1B000085 -  8    85 40 04 03 00 00 00 00
  1235)      3561.521 1  Rx        00FD -  8    05 E4 3F 00 00 00 00 00
  1236)      3566.513 1  Rx        0504 -  8    FF 06 00 00 26 11 14 11
  1237)      3566.854 1  Rx        01A0 -  8    C2 03 71 F2 3F 00 00 00
  1238)      3567.067 1  Rx        01AC -  8    9B 53 FF F3 BF FF FD 02
  1239)      3571.504 1  Rx        0040 -  8    61 09 00 01 81 00 00 B6
  1240)      3576.496 1  Rx        0151 -  8    3A 18 FF 7F FC 03 00 7D
  1241)      3581.488 1  Rx        0040 -  8    F8 08 00 01 81 00 00 B4
  1242)      3586.479 1  Rx        00A8 -  8    00 E0 FF D6 99 64 78 0E
  1243)      3586.906 1  Rx        01A0 -  8    CE 04 71 F2 3F 00 00 00
  1244)      3587.119 1  Rx        01AC -  8    DE 54 FF F3 BF FF FD 02
  1245)      3587.375 1  Rx        02C0 -  8    73 05 39 43 80 1C 0C 70
  1246)      3591.514 1  Rx        0151 -  8    17 15 FF FF FC 03 00 7D
  1247)      3596.505 1  Rx        01A0 -  8    FF 9F 0F C3 3F 00 00 00
  1248)      3601.497 1  Rx        01AC -  8    E0 1F F0 03 42 E2 D1 02
  1249)      3606.489 1  Rx        018D -  8    00 00 7D B3 00 00 3B 01
  1250)      3606.830 1  Rx        01A0 -  8    FB 05 71 F2 3F 00 00 00
  1251)      3607.086 1  Rx        01AC -  8    7F 55 FF F3 BF FF FD 02
  1252)      3611.480 1  Rx        00A8 -  8    00 E0 FF D6 99 64 6E 0E
  1253)      3616.515 1  Rx        00EE -  8    00 00 00 00 00 00 40 8F
  1254)      3621.506 1  Rx        0152 -  8    EF D9 CE 7C 3D D7 7E 9D
  1255)      3626.498 1  Rx        0151 -  8    92 16 FF 7F FC 03 00 7D
  1256)      3626.839 1  Rx        01A0 -  8    D9 06 71 F2 3F 00 00 00
  1257)      3627.095 1  Rx        01AC -  8    A8 56 FF F3 BF FF FD 02
  1258)      3631.490 1  Rx        018D -  8    00 10 7D B3 00 00 3B 01
  1259)      3636.487 1  Rx        03A3 -  8    17 9D 2F 42 42 3F FE CB
  1260)      3641.478 1  Rx        00A8 -  8    00 E0 FF D6 99 64 66 0E
  1261)      3646.513 1  Rx        00EE -  8    00 00 00 00 00 00 40 8F
  1262)      3646.811 1  Rx        01A0 -  8    31 07 71 F2 3F 00 00 00
  1263)      3647.025 1  Rx        01AC -  8    37 57 FF F3 BF FF FD 02
  1264)      3651.376 1  Rx        0152 -  8    A7 DA CE 7C 3D D4 7E 9D
  1265)      3656.325 1  Rx        03C0 -  4    9F 0D 23 00
  1266)      3662.810 1  Rx        00FD -  8    05 E4 3F 00 00 00 00 00
  1267)      3666.479 1  Rx        0504 -  8    FF 06 00 00 26 11 14 11
  1268)      3666.906 1  Rx        01A0 -  8    A0 08 71 F2 3F 00 00 00
  1269)      3667.119 1  Rx        01AC -  8    D8 58 FF F3 BF FF FD 02
  1270)      3667.375 1  Rx        02C0 -  8    8E 06 39 43 80 1C 0C 70
  1271)      3671.514 1  Rx        0040 -  8    61 09 00 01 81 00 00 B6
  1272)      3676.505 1  Rx        0151 -  8    3A 18 FF 7F FC 03 00 7D
  1273)      3681.497 1  Rx        0040 -  8    F8 08 00 01 81 00 00 B4
  1274)      3683.886 1  Rx    17FC0085 -  8    06 19 06 00 72 56 FF FF
  1275)      3686.489 1  Rx        00A8 -  8    00 E0 FF D6 99 64 78 0E
  1276)      3686.915 1  Rx        01A0 -  8    36 09 71 F2 3F 00 00 00
  1277)      3687.129 1  Rx        01AC -  8    19 59 FF F3 BF FF FD 02
  1278)      3691.480 1  Rx        0151 -  8    17 15 FF FF FC 03 00 7D
  1279)      3696.515 1  Rx        01A0 -  8    FF 9F 0F C3 3F 00 00 00
  1280)      3701.506 1  Rx        01AC -  8    E0 1F F0 03 42 E2 D1 02
  1281)      3706.498 1  Rx        018D -  8    00 00 7D B3 00 00 3B 01
  1282)      3706.967 1  Rx        01A0 -  8    14 0A 71 F2 3F 00 00 00
  1283)      3707.181 1  Rx        01AC -  8    35 5A FF F3 BF FF FD 02
  1284)      3711.490 1  Rx        00A8 -  8    00 E0 FF D6 99 64 6E 0E
  1285)      3715.714 1  Rx    17FE0085 -  8    03 7F 19 78 AA AA AA AA
  1286)      3716.482 1  Rx        00EE -  8    00 00 00 00 00 00 40 8F
  1287)      3721.473 1  Rx        0152 -  8    EF D9 CE 7C 3D D7 7E 9D
  1288)      3726.508 1  Rx        0151 -  8    92 16 FF 7F FC 03 00 7D
  1289)      3726.977 1  Rx        01A0 -  8    71 0B 71 F2 3F 00 00 00
  1290)      3727.233 1  Rx        01AC -  8    9D 5B FF F3 BF FF FD 02
  1291)      3731.499 1  Rx        018D -  8    00 10 7D B3 00 00 3B 01
  1292)      3736.363 1  Rx        03A3 -  8    17 9D 2F 42 42 3F FE CB
  1293)      3741.483 1  Rx        00A8 -  8    00 E0 FF D6 99 64 66 0E
  1294)      3745.834 1  Rx    17FE0085 -  8    11 12 59 06 00 72 56 2F
  1295)      3746.517 1  Rx        00EE -  8    00 00 00 00 00 00 40 8F
  1296)      3746.816 1  Rx    17FC0085 -  8    30 00 00 FF FF FF FF FF
  1297)      3747.072 1  Rx    17FE0085 -  8    21 01 04 01 02 20 00 D9
  1298)      3747.328 1  Rx        01A0 -  8    AB 0C 71 F2 3F 00 00 00
  1299)      3747.584 1  Rx        01AC -  8    DB 5C FF F3 BF FF FD 02
  1300)      3747.797 1  Rx        02C0 -  8    2E 07 39 43 80 1C 0C 70
  1301)      3748.096 1  Rx    17FE0085 -  8    22 0E 00 00 5A 20 8E F1
  1302)      3748.437 1  Rx    17FE0085 -  8    23 71 50 99 41 42 41 41
  1303)      3748.736 1  Rx    17FE0085 -  8    24 45 82 7F 01 F5 01 F5
  1304)      3749.034 1  Rx    17FE0085 -  8    25 01 F5 00 A9 00 00 45
  1305)      3749.333 1  Rx    17FE0085 -  8    26 83 88 95 60 66 00 00
  1306)      3749.631 1  Rx    17FE0085 -  8    27 B3 45 84 80 00 00 7A
  1307)      3749.930 1  Rx    17FE0085 -  8    28 00 45 85 4E 20 00 C8
  1308)      3750.229 1  Rx    17FE0085 -  8    29 0E 78 45 86 01 F4 01
  1309)      3750.527 1  Rx    17FE0085 -  8    2A F4 26 65 07 00 00 10
  1310)      3750.826 1  Rx    17FE0085 -  8    2B 00 01 05 18 0C 00 00
  1311)      3751.125 1  Rx    17FE0085 -  8    2C 00 00 00 00 00 00 00
  1312)      3751.381 1  Rx        0152 -  8    A7 DA CE 7C 3D D4 7E 9D
  1313)      3751.679 1  Rx    17FE0085 -  8    2D 00 00 00 00 00 00 00
  1314)      3752.021 1  Rx    17FE0085 -  8    2E 00 00 18 0D 00 80 00
  1315)      3752.319 1  Rx    17FE0085 -  8    2F 00 02 00 00 00 00 00
  1316)      3752.618 1  Rx    17FE0085 -  8    20 40 1C 00 00 40 14 00
  1317)      3752.917 1  Rx    17FE0085 -  8    21 2E 3F DC 3F D4 3E 80
  1318)      3753.215 1  Rx    17FE0085 -  8    22 30 00 00 30 00 00 11
  1319)      3753.514 1  Rx    17FE0085 -  8    23 0F 10 1D 00 00 00 00
  1320)      3753.813 1  Rx    17FE0085 -  8    24 00 00 00 00 03 2B 06
  1321)      3754.111 1  Rx    17FE0085 -  8    25 DD 00 00 FF 40 FF 40
  1322)      3754.452 1  Rx    17FE0085 -  8    26 18 0E 00 00 00 00 18
  1323)      3754.751 1  Rx    17FE0085 -  8    27 0F 00 00 00 00 18 10
  1324)      3755.050 1  Rx    17FE0085 -  8    28 00 00 00 01 55 55 55
  1325)      3755.306 1  Rx    17FE0085 -  8    29 55 00 80 22 01 00 00
  1326)      3755.647 1  Rx    17FE0085 -  8    2A 00 00 00 00 00 00 00
  1327)      3755.946 1  Rx    17FE0085 -  8    2B 00 00 00 00 00 00 00
  1328)      3756.287 1  Rx    17FE0085 -  8    2C 18 11 00 00 00 00 00
  1329)      3756.458 1  Rx        03C0 -  4    9F 0D 23 00
  1330)      3756.756 1  Rx    17FE0085 -  8    2D 00 00 00 00 00 00 00
  1331)      3757.055 1  Rx    17FE0085 -  8    2E 00 00 00 00 00 00 00
  1332)      3757.396 1  Rx    17FE0085 -  8    2F 00 00 01 00 00 00 00
  1333)      3757.695 1  Rx    1B000085 -  8    85 40 04 01 00 00 00 00
  1334)      3757.951 1  Rx    17FE0085 -  8    20 00 00 00 00 00 00 00
  1335)      3758.292 1  Rx    17FE0085 -  8    21 00 00 00 00 00 00 00
  1336)      3758.591 1  Rx    17FE0085 -  8    22 00 00 00 00 00 00 00
  1337)      3758.890 1  Rx    17FE0085 -  8    23 00 00 00 00 00 00 00
  1338)      3759.231 1  Rx    17FE0085 -  8    24 00 00 00 00 00 00 00
  1339)      3759.530 1  Rx    17FE0085 -  8    25 00 00 00 00 00 00 00
  1340)      3759.828 1  Rx    17FE0085 -  8    26 00 00 00 00 00 00 00
  1341)      3760.127 1  Rx    17FE0085 -  8    27 00 00 AA AA AA AA AA
  1342)      3761.492 1  Rx        00FD -  8    05 E4 3F 00 00 00 00 00
  1343)      3766.484 1  Rx        0504 -  8    FF 06 00 00 26 11 14 11
  1344)      3766.825 1  Rx        01A0 -  8    E9 0D 71 F2 3F 00 00 00
  1345)      3767.081 1  Rx        01AC -  8    E3 5D FF F3 BF FF FD 02
  1346)      3767.337 1  Rx    17F00085 -  8    20 85 00 00 00 00 01 80
  1347)      3767.636 1  Rx    1A5554A7 -  8    42 00 00 00 00 00 00 80
  1348)      3771.475 1  Rx        0040 -  8    61 09 00 01 81 00 00 B6
  1349)      3776.382 1  Rx        0151 -  8    3A 18 FF 7F FC 03 00 7D
  1350)      3781.501 1  Rx        0040 -  8    F8 08 00 01 81 00 00 B4
  1351)      3786.365 1  Rx        00A8 -  8    00 E0 FF D6 99 64 78 0E
  1352)      3786.877 1  Rx        01A0 -  8    90 0E 71 F2 3F 00 00 00
  1353)      3787.133 1  Rx        01AC -  8    84 5E FF F3 BF FF FD 02
  1354)      3791.485 1  Rx        0151 -  8    17 15 FF FF FC 03 00 7D
  1355)      3796.477 1  Rx        01A0 -  8    FF 9F 0F C3 3F 00 00 00
  1356)      3801.383 1  Rx        01AC -  8    E0 1F F0 03 42 E2 D1 02
  1357)      3806.503 1  Rx        018D -  8    00 00 7D B3 00 00 3B 01
  1358)      3806.844 1  Rx        01A0 -  8    83 0F 71 F2 3F 00 00 00
  1359)      3807.057 1  Rx        01AC -  8    C6 5F FF F3 BF FF FD 02
  1360)      3811.494 1  Rx        00A8 -  8    00 E0 FF D6 99 64 6E 0E
  1361)      3816.486 1  Rx        00EE -  8    00 00 00 00 00 00 40 8F
  1362)      3821.392 1  Rx        0152 -  8    EF D9 CE 7C 3D D7 7E 9D
  1363)      3826.469 1  Rx        0151 -  8    92 16 FF 7F FC 03 00 7D
  1364)      3826.768 1  Rx        01A0 -  8    74 00 71 F2 3F 00 00 00
  1365)      3827.024 1  Rx        01AC -  8    65 50 FF F3 BF FF FD 02
  1366)      3827.280 1  Rx        02C0 -  8    7F 08 39 43 80 1C 0C 70
  1367)      3831.504 1  Rx        018D -  8    00 10 7D B3 00 00 3B 01
  1368)      3836.367 1  Rx        03A3 -  8    17 9D 2F 42 42 3F FE CB
  1369)      3841.487 1  Rx        00A8 -  8    00 E0 FF D6 99 64 66 0E
  1370)      3846.479 1  Rx        00EE -  8    00 00 00 00 00 00 40 8F
  1371)      3846.820 1  Rx        01A0 -  8    C3 01 71 F2 3F 00 00 00
  1372)      3847.076 1  Rx        01AC -  8    AB 51 FF F3 BF FF FD 02
  1373)      3847.332 1  Rx    1A555510 -  8    82 30 35 32 37 CC 00 00
  1374)      3851.385 1  Rx        0152 -  8    A7 DA CE 7C 3D D4 7E 9D
  1375)      3856.291 1  Rx        03C0 -  4    9F 0D 23 00
  1376)      3861.496 1  Rx        00FD -  8    05 E4 3F 00 00 00 00 00
  1377)      3866.488 1  Rx        0504 -  8    FF 06 00 00 26 11 14 11
  1378)      3866.829 1  Rx        01A0 -  8    B2 02 71 F2 3F 00 00 00
  1379)      3867.043 1  Rx        01AC -  8    51 52 FF F3 BF FF FD 02
  1380)      3871.480 1  Rx        0040 -  8    61 09 00 01 81 00 00 B6
  1381)      3876.472 1  Rx        0151 -  8    3A 18 FF 7F FC 03 00 7D
  1382)      3881.506 1  Rx        0040 -  8    F8 08 00 01 81 00 00 B4
  1383)      3886.370 1  Rx        00A8 -  8    00 E0 FF D6 99 64 78 0E
  1384)      3886.796 1  Rx        01A0 -  8    C2 03 71 F2 3F 00 00 00
  1385)      3887.010 1  Rx        01AC -  8    9B 53 FF F3 BF FF FD 02
